# Version 1.00
#
freq[Hz];re:Trc1_S21;im:Trc1_S21;
1.390000001000000E+09;3.767815167226306E-04;4.604172541538657E-04;
1.390060061060060E+09;3.790434914753915E-04;4.547100155469131E-04;
1.390120121120120E+09;3.959401502834026E-04;4.672606229538844E-04;
1.390180181180180E+09;3.979974031433474E-04;4.581334149426076E-04;
1.390240241240240E+09;4.119208958281087E-04;4.736345066277743E-04;
1.390300301300300E+09;4.114224110642584E-04;4.731413317992944E-04;
1.390360361360360E+09;4.067264301883063E-04;4.692233044753970E-04;
1.390420421420420E+09;4.234039844112083E-04;4.792497340642050E-04;
1.390480481480480E+09;4.154903977815327E-04;4.927373957268232E-04;
1.390540541540540E+09;4.336130133094759E-04;4.926280034028130E-04;
1.390600601600601E+09;4.292169037105182E-04;4.970373520553964E-04;
1.390660661660661E+09;4.292704486251434E-04;4.917102056104365E-04;
1.390720721720721E+09;4.524472925590598E-04;5.037674181386513E-04;
1.390780781780781E+09;4.445706875947385E-04;5.024946569034525E-04;
1.390840841840841E+09;4.447930323332304E-04;5.192691605353688E-04;
1.390900901900901E+09;4.595586681971340E-04;5.088761001610336E-04;
1.390960961960961E+09;4.512390622434144E-04;5.342524548503052E-04;
1.391021022021021E+09;4.564498360400105E-04;5.321528771983521E-04;
1.391081082081081E+09;4.766760725392312E-04;5.520946924176274E-04;
1.391141142141141E+09;4.771424539434916E-04;5.409571777530901E-04;
1.391201202201201E+09;4.879775827202878E-04;5.573330036139891E-04;
1.391261262261261E+09;4.888174726670840E-04;5.577637832947967E-04;
1.391321322321321E+09;4.749317216674982E-04;5.512326680101190E-04;
1.391381382381381E+09;4.970396149872324E-04;5.671719178222197E-04;
1.391441442441442E+09;5.215779258849306E-04;5.731861989642243E-04;
1.391501502501502E+09;5.060603258082895E-04;5.749197732974659E-04;
1.391561562561562E+09;5.281697666278785E-04;5.761593288662100E-04;
1.391621622621622E+09;5.461718948863141E-04;5.977743132084052E-04;
1.391681682681682E+09;5.203632606984570E-04;5.868846472526659E-04;
1.391741742741742E+09;5.427978770154353E-04;5.944825105334804E-04;
1.391801802801802E+09;5.467959404584022E-04;6.173639661903902E-04;
1.391861862861862E+09;5.738084809294068E-04;6.005895312767664E-04;
1.391921922921922E+09;5.549875889910288E-04;6.121907369885176E-04;
1.391981982981982E+09;5.698116982217818E-04;6.160804461650172E-04;
1.392042043042042E+09;5.755696223103980E-04;6.456368319516088E-04;
1.392102103102102E+09;5.933866103367105E-04;6.221540310028662E-04;
1.392162163162162E+09;5.995832862379839E-04;6.314933995798252E-04;
1.392222223222222E+09;5.940177717434614E-04;6.308601199761275E-04;
1.392282283282282E+09;6.127966952167878E-04;6.382845179821699E-04;
1.392342343342342E+09;6.290368997458610E-04;6.583646464314083E-04;
1.392402403402402E+09;6.211399057869457E-04;6.564908667382157E-04;
1.392462463462462E+09;6.287536801042235E-04;6.731556721346790E-04;
1.392522523522522E+09;6.255770196018605E-04;6.654860789987868E-04;
1.392582583582582E+09;6.490463365766432E-04;6.631684547243330E-04;
1.392642643642643E+09;6.493204916067592E-04;6.759255317339669E-04;
1.392702703702703E+09;6.606169623621663E-04;7.024062831418058E-04;
1.392762763762763E+09;6.654270506305292E-04;6.983403156083297E-04;
1.392822823822823E+09;6.757470735645902E-04;6.992777268432810E-04;
1.392882883882883E+09;6.923471961132030E-04;7.144738588611827E-04;
1.392942943942943E+09;6.975113568893938E-04;7.083403510583850E-04;
1.393003004003003E+09;7.040664605111525E-04;7.269012548863071E-04;
1.393063064063063E+09;7.191706389151006E-04;7.312882012267121E-04;
1.393123124123123E+09;7.211997881496436E-04;7.336461232491412E-04;
1.393183184183183E+09;7.503983306987333E-04;7.499475667296390E-04;
1.393243244243243E+09;7.462463775944727E-04;7.510050439332884E-04;
1.393303304303303E+09;7.574926965537442E-04;7.537077372452549E-04;
1.393363364363363E+09;7.615359151735170E-04;7.695812671014304E-04;
1.393423424423424E+09;7.622829729477730E-04;7.722671765127864E-04;
1.393483484483484E+09;7.885346068361507E-04;7.801886971914565E-04;
1.393543544543544E+09;8.011333474454769E-04;8.019524275886104E-04;
1.393603604603604E+09;8.025201586801794E-04;8.130106928332131E-04;
1.393663664663664E+09;8.048602430814157E-04;8.138240510653437E-04;
1.393723724723724E+09;8.243190069483654E-04;8.120604387774182E-04;
1.393783784783784E+09;8.417377449032804E-04;8.283065105227394E-04;
1.393843844843844E+09;8.607089839712385E-04;8.360503335447443E-04;
1.393903904903904E+09;8.577333638502625E-04;8.351543147267976E-04;
1.393963964963964E+09;8.701870669879267E-04;8.432842117429979E-04;
1.394024025024024E+09;8.864863204578460E-04;8.708599265427885E-04;
1.394084085084084E+09;9.052881185076929E-04;8.656060412424409E-04;
1.394144145144144E+09;9.319259770710739E-04;8.695747723324352E-04;
1.394204205204204E+09;9.147623940326265E-04;8.790650509302567E-04;
1.394264265264264E+09;9.339567678080058E-04;8.918126321735925E-04;
1.394324325324324E+09;9.323120639325980E-04;9.011216464335486E-04;
1.394384385384384E+09;9.576657078585886E-04;9.150452826696178E-04;
1.394444445444444E+09;9.836733379321473E-04;9.263486173065514E-04;
1.394504505504504E+09;9.876756287321255E-04;9.205266562452496E-04;
1.394564565564564E+09;1.013623481106803E-03;9.463144629674436E-04;
1.394624625624625E+09;1.016294189632842E-03;9.602536814763077E-04;
1.394684685684685E+09;1.027466547179022E-03;9.636504207405353E-04;
1.394744745744745E+09;1.048576430182060E-03;9.764445077792779E-04;
1.394804805804805E+09;1.039780423450680E-03;9.734600935826076E-04;
1.394864865864865E+09;1.071801644171034E-03;1.000586768045294E-03;
1.394924925924925E+09;1.085191694854013E-03;9.959298483876425E-04;
1.394984985984985E+09;1.113060934333742E-03;1.002033024067939E-03;
1.395045046045045E+09;1.131895877295677E-03;1.031431580687972E-03;
1.395105106105105E+09;1.149874859226040E-03;1.021216655503233E-03;
1.395165166165165E+09;1.156261098235644E-03;1.038802337329474E-03;
1.395225226225225E+09;1.162949639414035E-03;1.055971059566511E-03;
1.395285286285285E+09;1.176461897372340E-03;1.059174647688508E-03;
1.395345346345345E+09;1.202489514799200E-03;1.074744269062137E-03;
1.395405406405406E+09;1.215595121722720E-03;1.083119633056120E-03;
1.395465466465466E+09;1.233026647241869E-03;1.086822778319828E-03;
1.395525526525526E+09;1.253750381249884E-03;1.113047695969345E-03;
1.395585586585586E+09;1.271538276526208E-03;1.116369868585121E-03;
1.395645646645646E+09;1.296022693320099E-03;1.132543451167732E-03;
1.395705706705706E+09;1.290227632612572E-03;1.149471859961115E-03;
1.395765766765766E+09;1.329840483753925E-03;1.158505326614136E-03;
1.395825826825826E+09;1.333330461666415E-03;1.169622287951141E-03;
1.395885886885886E+09;1.368542150170780E-03;1.174345864792742E-03;
1.395945946945946E+09;1.381612781448946E-03;1.175156221941060E-03;
1.396006007006006E+09;1.405624231955123E-03;1.203082187409632E-03;
1.396066067066066E+09;1.411682491798910E-03;1.226765686134905E-03;
1.396126127126126E+09;1.451750809844585E-03;1.228316405495853E-03;
1.396186187186186E+09;1.464155621740524E-03;1.238549992344195E-03;
1.396246247246246E+09;1.484728595309548E-03;1.244822573877072E-03;
1.396306307306306E+09;1.500536719471939E-03;1.267977119970862E-03;
1.396366367366366E+09;1.533283993307428E-03;1.270992183478051E-03;
1.396426427426426E+09;1.569017067501056E-03;1.291596690023155E-03;
1.396486487486486E+09;1.588051888300885E-03;1.314868123889804E-03;
1.396546547546546E+09;1.606725802125796E-03;1.313527226530508E-03;
1.396606607606607E+09;1.617267548991817E-03;1.337867861231139E-03;
1.396666667666667E+09;1.652898559579565E-03;1.340455535208857E-03;
1.396726727726727E+09;1.671191502068680E-03;1.362421736656265E-03;
1.396786787786787E+09;1.703615064071117E-03;1.364990032942036E-03;
1.396846847846847E+09;1.731381464098374E-03;1.379279076853872E-03;
1.396906907906907E+09;1.757219768021938E-03;1.403152727540682E-03;
1.396966967966967E+09;1.772882809112476E-03;1.422480384307704E-03;
1.397027028027027E+09;1.799510075039537E-03;1.421872555850118E-03;
1.397087088087087E+09;1.829806862150858E-03;1.443684658728056E-03;
1.397147148147147E+09;1.875458967927863E-03;1.466013033715936E-03;
1.397207208207207E+09;1.902074754126699E-03;1.488726642170230E-03;
1.397267268267267E+09;1.925172508102636E-03;1.496362983953329E-03;
1.397327328327327E+09;1.973944828741810E-03;1.514871147807496E-03;
1.397387388387387E+09;1.973557503195673E-03;1.536402310331483E-03;
1.397447448447448E+09;2.009440021333431E-03;1.552172832720695E-03;
1.397507508507508E+09;2.051285747624315E-03;1.557317366259683E-03;
1.397567568567568E+09;2.087059950629915E-03;1.570764451896886E-03;
1.397627628627628E+09;2.126280510225713E-03;1.587232334985635E-03;
1.397687688687688E+09;2.138746351823444E-03;1.610702440694950E-03;
1.397747748747748E+09;2.180397224089395E-03;1.632696709725845E-03;
1.397807808807808E+09;2.200394647590350E-03;1.649966544986190E-03;
1.397867868867868E+09;2.247414070054710E-03;1.671540254993282E-03;
1.397927928927928E+09;2.283747072337983E-03;1.693985064703054E-03;
1.397987988987988E+09;2.323732467507888E-03;1.703077584935754E-03;
1.398048049048048E+09;2.369963016227991E-03;1.735210571605937E-03;
1.398108109108108E+09;2.404378227438412E-03;1.738735539649622E-03;
1.398168169168168E+09;2.437392064456793E-03;1.757676047592848E-03;
1.398228229228228E+09;2.472581385159395E-03;1.788139946247503E-03;
1.398288289288288E+09;2.523896240580982E-03;1.799371914297136E-03;
1.398348349348348E+09;2.567779586136612E-03;1.822532448321246E-03;
1.398408409408408E+09;2.598499628763754E-03;1.827125031890385E-03;
1.398468469468468E+09;2.642213531375538E-03;1.863509403574736E-03;
1.398528529528528E+09;2.681925171141821E-03;1.881622930794550E-03;
1.398588589588588E+09;2.739053738056487E-03;1.898659568297795E-03;
1.398648649648649E+09;2.770122359631734E-03;1.923769813795123E-03;
1.398708709708709E+09;2.814224441101312E-03;1.936365807537832E-03;
1.398768769768769E+09;2.873613964235204E-03;1.958385193185772E-03;
1.398828829828829E+09;2.916560111382361E-03;1.966173965422038E-03;
1.398888889888889E+09;2.968537153947363E-03;2.003650992730199E-03;
1.398948949948949E+09;3.004833927262554E-03;2.031284309048312E-03;
1.399009010009009E+09;3.053232874356255E-03;2.033429228619614E-03;
1.399069070069069E+09;3.122787600488275E-03;2.080973214773392E-03;
1.399129130129129E+09;3.174650069284649E-03;2.095497853908060E-03;
1.399189190189189E+09;3.213859794526316E-03;2.110289583603282E-03;
1.399249250249249E+09;3.274605070030719E-03;2.133841793126855E-03;
1.399309310309309E+09;3.334935653544973E-03;2.165671720124527E-03;
1.399369370369369E+09;3.394929404916532E-03;2.189629316638261E-03;
1.399429430429430E+09;3.444664981457850E-03;2.220853178186470E-03;
1.399489490489490E+09;3.503812478204471E-03;2.227148277488628E-03;
1.399549550549550E+09;3.569124727545484E-03;2.272449691292918E-03;
1.399609610609610E+09;3.628169314751196E-03;2.285669330610825E-03;
1.399669670669670E+09;3.688693874031184E-03;2.304378522707647E-03;
1.399729730729730E+09;3.750938866744239E-03;2.344282099492290E-03;
1.399789790789790E+09;3.815747748626824E-03;2.365317228922574E-03;
1.399849850849850E+09;3.887552037532842E-03;2.400639352778315E-03;
1.399909910909910E+09;3.968903212513922E-03;2.402132354038913E-03;
1.399969970969970E+09;4.030419929954807E-03;2.424332957891945E-03;
1.400030031030030E+09;4.095023183157956E-03;2.457140988470793E-03;
1.400090091090090E+09;4.171408024431638E-03;2.483459281856698E-03;
1.400150151150150E+09;4.229617431005530E-03;2.513137389285621E-03;
1.400210211210210E+09;4.331014926429188E-03;2.545843832258295E-03;
1.400270271270270E+09;4.411831519488536E-03;2.572032585284155E-03;
1.400330331330330E+09;4.472506472125214E-03;2.597523988321053E-03;
1.400390391390390E+09;4.543884483540851E-03;2.619463928032679E-03;
1.400450451450450E+09;4.631946977396863E-03;2.652498388242929E-03;
1.400510511510510E+09;4.723942982818122E-03;2.687547371934450E-03;
1.400570571570570E+09;4.799757682310031E-03;2.706691626881511E-03;
1.400630631630631E+09;4.899767995184076E-03;2.740901452730962E-03;
1.400690691690691E+09;4.988967154546489E-03;2.759110962834075E-03;
1.400750751750751E+09;5.067199759217950E-03;2.809166486338812E-03;
1.400810811810811E+09;5.181147797122156E-03;2.821346087906068E-03;
1.400870871870871E+09;5.270226311908782E-03;2.860709028561704E-03;
1.400930931930931E+09;5.360445730700362E-03;2.893098294245504E-03;
1.400990991990991E+09;5.473209015595236E-03;2.926632772029018E-03;
1.401051052051051E+09;5.575659806926353E-03;2.954882717404006E-03;
1.401111112111111E+09;5.666829231218412E-03;2.982462033933287E-03;
1.401171172171171E+09;5.773924598055280E-03;3.003166947599176E-03;
1.401231232231231E+09;5.885813793167593E-03;3.048438080685716E-03;
1.401291292291291E+09;6.012365043265073E-03;3.077627733311436E-03;
1.401351352351351E+09;6.109719077587735E-03;3.111739553544778E-03;
1.401411412411412E+09;6.216980754883664E-03;3.142957614938068E-03;
1.401471472471472E+09;6.344825921612364E-03;3.175332550216350E-03;
1.401531532531532E+09;6.459322636351344E-03;3.196740662913885E-03;
1.401591592591592E+09;6.606543171458163E-03;3.232374437769825E-03;
1.401651652651652E+09;6.707457650298646E-03;3.269097843265979E-03;
1.401711712711712E+09;6.840909369758429E-03;3.285266532284267E-03;
1.401771772771772E+09;6.989915902197258E-03;3.325202008667653E-03;
1.401831832831832E+09;7.127751711566403E-03;3.378315367435317E-03;
1.401891892891892E+09;7.266004324833593E-03;3.392119247529062E-03;
1.401951952951952E+09;7.403160444457765E-03;3.435583376864989E-03;
1.402012013012012E+09;7.543057398638077E-03;3.450188330066246E-03;
1.402072073072072E+09;7.688719809695668E-03;3.491483215610158E-03;
1.402132133132132E+09;7.863980679621952E-03;3.523809392241741E-03;
1.402192193192192E+09;7.994435487079640E-03;3.557675227930729E-03;
1.402252253252252E+09;8.162891788801478E-03;3.596764987382466E-03;
1.402312313312312E+09;8.319405791993899E-03;3.632264269932930E-03;
1.402372373372372E+09;8.485548985067079E-03;3.660251974737167E-03;
1.402432433432432E+09;8.662084414169114E-03;3.676730680454137E-03;
1.402492493492492E+09;8.842286410777304E-03;3.720375076241258E-03;
1.402552553552552E+09;9.014439899219025E-03;3.762535969193793E-03;
1.402612613612613E+09;9.207035800818995E-03;3.787529169151554E-03;
1.402672673672673E+09;9.393120057205107E-03;3.825541038482560E-03;
1.402732733732733E+09;9.588409478474476E-03;3.852869189808804E-03;
1.402792793792793E+09;9.783238379397492E-03;3.883088311203819E-03;
1.402852853852853E+09;9.972519612715924E-03;3.918523844340115E-03;
1.402912913912913E+09;1.019431120834564E-02;3.954079375205504E-03;
1.402972973972973E+09;1.039397671115706E-02;4.001676640445752E-03;
1.403033034033033E+09;1.061286674837564E-02;4.022874305147506E-03;
1.403093094093093E+09;1.083371065814208E-02;4.042945579438110E-03;
1.403153154153153E+09;1.107216474808496E-02;4.066640155392663E-03;
1.403213214213213E+09;1.129548108692131E-02;4.100322917131940E-03;
1.403273274273273E+09;1.153878426303912E-02;4.132590880051243E-03;
1.403333334333333E+09;1.178461564573978E-02;4.153873018061939E-03;
1.403393394393393E+09;1.203745049430082E-02;4.190493850443393E-03;
1.403453454453454E+09;1.230225180797385E-02;4.213628162243014E-03;
1.403513514513514E+09;1.255941009183124E-02;4.239552909564776E-03;
1.403573574573574E+09;1.283547362582453E-02;4.263668334478513E-03;
1.403633634633634E+09;1.311038783848636E-02;4.280397227775505E-03;
1.403693694693694E+09;1.338774392776000E-02;4.298955198135175E-03;
1.403753754753754E+09;1.370219705517930E-02;4.338323776491447E-03;
1.403813814813814E+09;1.398959727606282E-02;4.350598363861699E-03;
1.403873874873874E+09;1.429261102552760E-02;4.355089051175549E-03;
1.403933934933934E+09;1.461489342603155E-02;4.390494168513392E-03;
1.403993994993994E+09;1.492013190447963E-02;4.398330355725183E-03;
1.404054055054054E+09;1.528603308105910E-02;4.418605024655632E-03;
1.404114115114114E+09;1.561127345549225E-02;4.426300434460467E-03;
1.404174175174174E+09;1.596293447008320E-02;4.426167851980803E-03;
1.404234235234234E+09;1.632605585452602E-02;4.455987751706945E-03;
1.404294295294294E+09;1.668489201467818E-02;4.450590447504774E-03;
1.404354355354354E+09;1.706345591810140E-02;4.455842217040124E-03;
1.404414415414414E+09;1.745738397070309E-02;4.463506358293040E-03;
1.404474475474474E+09;1.785416402625557E-02;4.455488538120812E-03;
1.404534535534534E+09;1.826815081802692E-02;4.468663599754157E-03;
1.404594595594594E+09;1.868849913840531E-02;4.456126157756495E-03;
1.404654655654655E+09;1.914544965708756E-02;4.442312934227906E-03;
1.404714715714715E+09;1.957168843356963E-02;4.426084485744054E-03;
1.404774775774775E+09;2.002428738368189E-02;4.421262461311666E-03;
1.404834835834835E+09;2.048586683945568E-02;4.395692617398538E-03;
1.404894895894895E+09;2.096386751323830E-02;4.359265238860098E-03;
1.404954955954955E+09;2.146638697478272E-02;4.353655914079451E-03;
1.405015016015015E+09;2.197330173815178E-02;4.316898784184123E-03;
1.405075076075075E+09;2.249459663181478E-02;4.280419523266322E-03;
1.405135136135135E+09;2.303670195593500E-02;4.219678762073875E-03;
1.405195196195195E+09;2.358444118259277E-02;4.193014459652945E-03;
1.405255256255255E+09;2.415452768108346E-02;4.124566963950325E-03;
1.405315316315315E+09;2.474233484005312E-02;4.070633699394613E-03;
1.405375376375375E+09;2.533963679605064E-02;3.997348785744007E-03;
1.405435436435436E+09;2.594135937749448E-02;3.941994770991218E-03;
1.405495496495496E+09;2.657450769186890E-02;3.844471016196715E-03;
1.405555556555556E+09;2.722403276086776E-02;3.754008702825539E-03;
1.405615616615616E+09;2.792001617527396E-02;3.668297839925707E-03;
1.405675676675676E+09;2.859198383540174E-02;3.554209826811912E-03;
1.405735736735736E+09;2.931045250548422E-02;3.436587108685066E-03;
1.405795796795796E+09;3.004180585417633E-02;3.326616011725552E-03;
1.405855856855856E+09;3.078306538956879E-02;3.183667833672119E-03;
1.405915916915916E+09;3.156308306784099E-02;3.051480797933550E-03;
1.405975976975976E+09;3.235432847653442E-02;2.885941778376602E-03;
1.406036037036036E+09;3.316957583565069E-02;2.706734461053221E-03;
1.406096097096096E+09;3.401632652803854E-02;2.527710325860855E-03;
1.406156157156156E+09;3.488386054103017E-02;2.335293437824547E-03;
1.406216217216216E+09;3.576966866407639E-02;2.130571469299241E-03;
1.406276277276276E+09;3.670014480906301E-02;1.890942271342606E-03;
1.406336337336336E+09;3.764911449438689E-02;1.653076178360273E-03;
1.406396397396396E+09;3.860766175645840E-02;1.395020874421826E-03;
1.406456457456456E+09;3.960497259871898E-02;1.116431010430917E-03;
1.406516517516516E+09;4.065773137741625E-02;8.299605442970257E-04;
1.406576577576576E+09;4.171133006665501E-02;5.170185554551187E-04;
1.406636637636637E+09;4.280234897084443E-02;1.638987743223532E-04;
1.406696697696697E+09;4.392172897164506E-02;-1.979559620263758E-04;
1.406756757756757E+09;4.507759770610651E-02;-5.938198362506757E-04;
1.406816817816817E+09;4.627850087777871E-02;-1.000975394267269E-03;
1.406876877876877E+09;4.752485754015996E-02;-1.427852649331455E-03;
1.406936937936937E+09;4.878342370265133E-02;-1.916908115879101E-03;
1.406996997996997E+09;5.009615869049133E-02;-2.411666239554325E-03;
1.407057058057057E+09;5.143928424900668E-02;-2.938176798109096E-03;
1.407117118117117E+09;5.281999725495668E-02;-3.528272471997290E-03;
1.407177178177177E+09;5.424937211128763E-02;-4.131205654559054E-03;
1.407237238237237E+09;5.572486609695169E-02;-4.778162418602180E-03;
1.407297298297297E+09;5.724636736662381E-02;-5.464104764363030E-03;
1.407357358357357E+09;5.879830347991475E-02;-6.192860527870233E-03;
1.407417418417418E+09;6.040030517338393E-02;-6.980326642284217E-03;
1.407477478477478E+09;6.205277283166767E-02;-7.834290756979136E-03;
1.407537538537538E+09;6.375064715791599E-02;-8.708208817040132E-03;
