# Version 1.00
#
freq[Hz];re:Trc1_S21;im:Trc1_S21;
1.390000001000000E+09;3.461773207570722E-04;5.088566456834658E-04;
1.390060061060060E+09;3.404588527441338E-04;5.087619732406255E-04;
1.390120121120120E+09;3.525411430504776E-04;5.066730300301323E-04;
1.390180181180180E+09;3.585391582134102E-04;5.179492813853560E-04;
1.390240241240240E+09;3.555099160287544E-04;5.256023638122208E-04;
1.390300301300300E+09;3.607049892328984E-04;5.208140636001352E-04;
1.390360361360360E+09;3.686450767590875E-04;5.524448946262014E-04;
1.390420421420420E+09;3.816967246123358E-04;5.345800812558090E-04;
1.390480481480480E+09;3.629519188050101E-04;5.455002233024822E-04;
1.390540541540540E+09;3.669935893098049E-04;5.551133383097400E-04;
1.390600601600601E+09;3.939355009208685E-04;5.602041274695639E-04;
1.390660661660661E+09;4.086195593538358E-04;5.607552325408622E-04;
1.390720721720721E+09;4.130891137271919E-04;5.739956163778965E-04;
1.390780781780781E+09;4.013172647053010E-04;5.679053400575585E-04;
1.390840841840841E+09;4.054105678316139E-04;5.805379567668570E-04;
1.390900901900901E+09;4.064977885577407E-04;5.688083591045481E-04;
1.390960961960961E+09;4.183079698864388E-04;5.855614534169564E-04;
1.391021022021021E+09;4.150885965612376E-04;5.915171455308946E-04;
1.391081082081081E+09;4.317765507044421E-04;5.920626688784071E-04;
1.391141142141141E+09;4.298707479917071E-04;6.071039587954956E-04;
1.391201202201201E+09;4.371474986747802E-04;6.099546498667961E-04;
1.391261262261261E+09;4.455161224156368E-04;6.135452309180874E-04;
1.391321322321321E+09;4.340543273261841E-04;6.194514545136438E-04;
1.391381382381381E+09;4.653933545334328E-04;6.197527512349810E-04;
1.391441442441442E+09;4.665998582759929E-04;6.429001085269193E-04;
1.391501502501502E+09;4.787717163552546E-04;6.356632537893480E-04;
1.391561562561562E+09;4.711890447192855E-04;6.429179183568253E-04;
1.391621622621622E+09;4.661019467043379E-04;6.473830340400923E-04;
1.391681682681682E+09;4.780472209036732E-04;6.709875516905365E-04;
1.391741742741742E+09;4.838509933965944E-04;6.754558138119429E-04;
1.391801802801802E+09;5.136633046251096E-04;6.902240118721072E-04;
1.391861862861862E+09;5.093793831305267E-04;6.817388993988112E-04;
1.391921922921922E+09;5.149804082079914E-04;6.812182868802447E-04;
1.391981982981982E+09;5.178764842304598E-04;6.924244382602757E-04;
1.392042043042042E+09;5.173268931675062E-04;6.883818805960469E-04;
1.392102103102102E+09;5.460419676469622E-04;6.883326548419721E-04;
1.392162163162162E+09;5.481395722924926E-04;7.059043945185533E-04;
1.392222223222222E+09;5.440086264748068E-04;7.116812071989443E-04;
1.392282283282282E+09;5.562472078191044E-04;7.282965547429121E-04;
1.392342343342342E+09;5.677551968444228E-04;7.333534404929550E-04;
1.392402403402402E+09;5.534418801276552E-04;7.353787695348642E-04;
1.392462463462462E+09;5.695032373387180E-04;7.500064739969655E-04;
1.392522523522522E+09;5.833842335463413E-04;7.558768262130178E-04;
1.392582583582582E+09;5.834123780299791E-04;7.593533795538900E-04;
1.392642643642643E+09;5.912162645621286E-04;7.629107976060221E-04;
1.392702703702703E+09;6.059477963616266E-04;7.693165018877389E-04;
1.392762763762763E+09;6.266942390443663E-04;7.904919230752671E-04;
1.392822823822823E+09;6.230566629119883E-04;7.942859236346521E-04;
1.392882883882883E+09;6.392885059861123E-04;7.867948050602374E-04;
1.392942943942943E+09;6.325293918071019E-04;8.174982993113704E-04;
1.393003004003003E+09;6.563452815095701E-04;8.059146937209716E-04;
1.393063064063063E+09;6.720372518591283E-04;8.369623925066038E-04;
1.393123124123123E+09;6.506356168339026E-04;8.359802279327571E-04;
1.393183184183183E+09;6.763888869711763E-04;8.461184810540951E-04;
1.393243244243243E+09;6.852388959477201E-04;8.430293008471369E-04;
1.393303304303303E+09;6.879451636941001E-04;8.489727018752326E-04;
1.393363364363363E+09;7.104879164800088E-04;8.634029473693856E-04;
1.393423424423424E+09;7.200929240564997E-04;8.703691488757611E-04;
1.393483484483484E+09;7.261688078508043E-04;8.862592836910343E-04;
1.393543544543544E+09;7.412267827639759E-04;8.926796896633106E-04;
1.393603604603604E+09;7.426446702110467E-04;9.063080410780487E-04;
1.393663664663664E+09;7.566453136206558E-04;9.201510653842430E-04;
1.393723724723724E+09;7.516445859547346E-04;9.191419646784552E-04;
1.393783784783784E+09;7.896531702031206E-04;9.308393060017534E-04;
1.393843844843844E+09;7.850181037513201E-04;9.261593879494802E-04;
1.393903904903904E+09;7.901952416719736E-04;9.435397129222820E-04;
1.393963964963964E+09;8.023251589484900E-04;9.670178772800003E-04;
1.394024025024024E+09;8.080948450905971E-04;9.727478281563930E-04;
1.394084085084084E+09;8.195165730106190E-04;9.680494767011435E-04;
1.394144145144144E+09;8.310637839063023E-04;9.848977902122342E-04;
1.394204205204204E+09;8.412295894342427E-04;1.006402024865174E-03;
1.394264265264264E+09;8.568858333237517E-04;1.016841310961501E-03;
1.394324325324324E+09;8.691953666992102E-04;1.015122202835186E-03;
1.394384385384384E+09;8.919042715336472E-04;1.033261503602702E-03;
1.394444445444444E+09;9.116978514468276E-04;1.040083299419181E-03;
1.394504505504504E+09;9.237080998242730E-04;1.054912569244244E-03;
1.394564565564564E+09;9.247473825871357E-04;1.064940246388804E-03;
1.394624625624625E+09;9.455250945161384E-04;1.054700083096786E-03;
1.394684685684685E+09;9.433906938058605E-04;1.082579225419398E-03;
1.394744745744745E+09;9.734148843164501E-04;1.096397528191532E-03;
1.394804805804805E+09;9.895026510373809E-04;1.100088219138347E-03;
1.394864865864865E+09;1.002097952880907E-03;1.119344894444601E-03;
1.394924925924925E+09;1.015471604909239E-03;1.123935980174211E-03;
1.394984985984985E+09;1.020630545999259E-03;1.147404130610878E-03;
1.395045046045045E+09;1.033044093747145E-03;1.171985317230545E-03;
1.395105106105105E+09;1.055216208052778E-03;1.164617633186901E-03;
1.395165166165165E+09;1.068746818362015E-03;1.175365541160941E-03;
1.395225226225225E+09;1.083740079582996E-03;1.197329298233139E-03;
1.395285286285285E+09;1.107819664116189E-03;1.194342596698143E-03;
1.395345346345345E+09;1.117210695948849E-03;1.234918732705641E-03;
1.395405406405406E+09;1.135864310088192E-03;1.229560620466393E-03;
1.395465466465466E+09;1.160753836789981E-03;1.245560014243699E-03;
1.395525526525526E+09;1.164776551557996E-03;1.258388024127003E-03;
1.395585586585586E+09;1.184095874889735E-03;1.272003594015401E-03;
1.395645646645646E+09;1.205088296122616E-03;1.288450703960068E-03;
1.395705706705706E+09;1.215786256903261E-03;1.310965820328835E-03;
1.395765766765766E+09;1.234388345207549E-03;1.324108024948782E-03;
1.395825826825826E+09;1.255665585093021E-03;1.335870667787339E-03;
1.395885886885886E+09;1.280549511250485E-03;1.336106665141408E-03;
1.395945946945946E+09;1.310057582391261E-03;1.363672008294173E-03;
1.396006007006006E+09;1.311581418592215E-03;1.359395721517569E-03;
1.396066067066066E+09;1.342530456114972E-03;1.373680299152874E-03;
1.396126127126126E+09;1.367902598278411E-03;1.409231837088086E-03;
1.396186187186186E+09;1.389655531486701E-03;1.419397889959391E-03;
1.396246247246246E+09;1.406285704823308E-03;1.423467066452773E-03;
1.396306307306306E+09;1.421153481726456E-03;1.434851667010512E-03;
1.396366367366366E+09;1.441313466086989E-03;1.448331502069768E-03;
1.396426427426426E+09;1.459435132378537E-03;1.464489874525061E-03;
1.396486487486486E+09;1.491732272119418E-03;1.488437606994772E-03;
1.396546547546546E+09;1.506033275790493E-03;1.521975989134196E-03;
1.396606607606607E+09;1.551085906842602E-03;1.528705565895930E-03;
1.396666667666667E+09;1.558988312589263E-03;1.540441106339896E-03;
1.396726727726727E+09;1.590165223621286E-03;1.560153920361021E-03;
1.396786787786787E+09;1.599827286618504E-03;1.578843255545660E-03;
1.396846847846847E+09;1.640004867336492E-03;1.588367603277226E-03;
1.396906907906907E+09;1.647446397222265E-03;1.601829732472641E-03;
1.396966967966967E+09;1.687199456710213E-03;1.631882803257556E-03;
1.397027028027027E+09;1.702117438651531E-03;1.642306115871566E-03;
1.397087088087087E+09;1.739298560039327E-03;1.662012213864454E-03;
1.397147148147147E+09;1.769979253172441E-03;1.676639993519736E-03;
1.397207208207207E+09;1.782243919730151E-03;1.690965168355635E-03;
1.397267268267267E+09;1.827029026931976E-03;1.721762178996896E-03;
1.397327328327327E+09;1.859363378583191E-03;1.739746545247309E-03;
1.397387388387387E+09;1.872086493934985E-03;1.754098283741476E-03;
1.397447448447448E+09;1.906091543927354E-03;1.787170772767766E-03;
1.397507508507508E+09;1.947291450425464E-03;1.782751539230983E-03;
1.397567568567568E+09;1.971361927219164E-03;1.837680636163797E-03;
1.397627628627628E+09;2.003036434936500E-03;1.824759777867161E-03;
1.397687688687688E+09;2.032356886977411E-03;1.870449981611431E-03;
1.397747748747748E+09;2.076266964120091E-03;1.886654310631299E-03;
1.397807808807808E+09;2.101378738184913E-03;1.911978362679406E-03;
1.397867868867868E+09;2.144363148285147E-03;1.925244462601312E-03;
1.397927928927928E+09;2.172489471525606E-03;1.941353828406614E-03;
1.397987988987988E+09;2.216647455115158E-03;1.965070790458108E-03;
1.398048049048048E+09;2.251356111601782E-03;1.998103063953848E-03;
1.398108109108108E+09;2.301230162133540E-03;2.011183178078396E-03;
1.398168169168168E+09;2.323923564854578E-03;2.033527056132659E-03;
1.398228229228228E+09;2.365921365142290E-03;2.043115736577533E-03;
1.398288289288288E+09;2.400440305246449E-03;2.076453672237576E-03;
1.398348349348348E+09;2.434069797286229E-03;2.094911285050820E-03;
1.398408409408408E+09;2.481572171395278E-03;2.131537368888802E-03;
1.398468469468468E+09;2.524337821410418E-03;2.154322821433705E-03;
1.398528529528528E+09;2.550542437523993E-03;2.175463344787919E-03;
1.398588589588588E+09;2.612520217238327E-03;2.192169818589628E-03;
1.398648649648649E+09;2.644290564013972E-03;2.230779328959162E-03;
1.398708709708709E+09;2.691531271836348E-03;2.248875401220557E-03;
1.398768769768769E+09;2.744624510064862E-03;2.276142233614216E-03;
1.398828829828829E+09;2.790809821124057E-03;2.313586451877641E-03;
1.398888889888889E+09;2.841125571694689E-03;2.330309046130693E-03;
1.398948949948949E+09;2.891235433893607E-03;2.366693202718730E-03;
1.399009010009009E+09;2.928504853772169E-03;2.379399477001963E-03;
1.399069070069069E+09;2.988323196925332E-03;2.412902560560305E-03;
1.399129130129129E+09;3.042273151458429E-03;2.439549156881003E-03;
1.399189190189189E+09;3.088701503599454E-03;2.464065026517592E-03;
1.399249250249249E+09;3.145670932300966E-03;2.505946562273570E-03;
1.399309310309309E+09;3.192352082431396E-03;2.525941517477765E-03;
1.399369370369369E+09;3.254559766973537E-03;2.554817845633921E-03;
1.399429430429430E+09;3.315902689483842E-03;2.585103092188755E-03;
1.399489490489490E+09;3.364756370846401E-03;2.621136488823305E-03;
1.399549550549550E+09;3.430848358503645E-03;2.642388236966297E-03;
1.399609610609610E+09;3.492818465397327E-03;2.677169552928834E-03;
1.399669670669670E+09;3.561278183927845E-03;2.706333822856566E-03;
1.399729730729730E+09;3.626544884925220E-03;2.744328825288911E-03;
1.399789790789790E+09;3.688967142759470E-03;2.768846048915016E-03;
1.399849850849850E+09;3.747942752802564E-03;2.792910258509013E-03;
1.399909910909910E+09;3.829946930366662E-03;2.843826750844625E-03;
1.399969970969970E+09;3.887740987379964E-03;2.875801150151497E-03;
1.400030031030030E+09;3.944515404001069E-03;2.899233297432791E-03;
1.400090091090090E+09;4.018093307555944E-03;2.927238988455099E-03;
1.400150151150150E+09;4.115629113955130E-03;2.957803198874785E-03;
1.400210211210210E+09;4.180168194875580E-03;3.009666991081000E-03;
1.400270271270270E+09;4.257615985064540E-03;3.037810134164371E-03;
1.400330331330330E+09;4.339263135074854E-03;3.059966901981535E-03;
1.400390391390390E+09;4.419721361569370E-03;3.111236124683799E-03;
1.400450451450450E+09;4.488540912687497E-03;3.148903102133695E-03;
1.400510511510510E+09;4.583470167103519E-03;3.178835586263176E-03;
1.400570571570570E+09;4.672330761017442E-03;3.201545722831719E-03;
1.400630631630631E+09;4.759128578955726E-03;3.252388269118241E-03;
1.400690691690691E+09;4.848435811086472E-03;3.274719516177257E-03;
1.400750751750751E+09;4.926266175176255E-03;3.331410402349719E-03;
1.400810811810811E+09;5.031231201752182E-03;3.355144049198132E-03;
1.400870871870871E+09;5.115455478699152E-03;3.403549565168252E-03;
1.400930931930931E+09;5.220728811080653E-03;3.437022087091396E-03;
1.400990991990991E+09;5.324377370063876E-03;3.478870899524105E-03;
1.401051052051051E+09;5.421608363464582E-03;3.523821608954195E-03;
1.401111112111111E+09;5.504182234527239E-03;3.566994735608287E-03;
1.401171172171171E+09;5.620691003306889E-03;3.593132128224896E-03;
1.401231232231231E+09;5.730110168502453E-03;3.631286080771953E-03;
1.401291292291291E+09;5.851222536881983E-03;3.672168143195825E-03;
1.401351352351351E+09;5.951983791068595E-03;3.730304390587027E-03;
1.401411412411412E+09;6.080426459898299E-03;3.762226819145431E-03;
1.401471472471472E+09;6.184133812009517E-03;3.813548751408005E-03;
1.401531532531532E+09;6.315237224510020E-03;3.851458028263109E-03;
1.401591592591592E+09;6.448445951582002E-03;3.875962501351944E-03;
1.401651652651652E+09;6.556902013368651E-03;3.931885354613944E-03;
1.401711712711712E+09;6.678020532731400E-03;3.960972024945500E-03;
1.401771772771772E+09;6.831387498232527E-03;4.010721594107596E-03;
1.401831832831832E+09;6.963708392794457E-03;4.067560576470399E-03;
1.401891892891892E+09;7.109314367217003E-03;4.112266006539931E-03;
1.401951952951952E+09;7.246127974877965E-03;4.152472627688682E-03;
1.402012013012012E+09;7.398883194983244E-03;4.195877550321143E-03;
1.402072073072072E+09;7.533995181277449E-03;4.250651427523366E-03;
1.402132133132132E+09;7.692221815847367E-03;4.290889041229990E-03;
1.402192193192192E+09;7.854293557983201E-03;4.331529770689043E-03;
1.402252253252252E+09;8.013722893010789E-03;4.368924618643318E-03;
1.402312313312312E+09;8.170330746741446E-03;4.435132465794928E-03;
1.402372373372372E+09;8.349082325813313E-03;4.471254529470268E-03;
1.402432433432432E+09;8.502533175164757E-03;4.513418452024786E-03;
1.402492493492492E+09;8.690132502627262E-03;4.580337299183022E-03;
1.402552553552552E+09;8.849288693759361E-03;4.619556240129361E-03;
1.402612613612613E+09;9.060589786818687E-03;4.665927844993372E-03;
1.402672673672673E+09;9.253767292725520E-03;4.705087572300055E-03;
1.402732733732733E+09;9.433295010371674E-03;4.755655962169049E-03;
1.402792793792793E+09;9.632574921064988E-03;4.811283956620597E-03;
1.402852853852853E+09;9.838932401532564E-03;4.852034890263418E-03;
1.402912913912913E+09;1.005750288354369E-02;4.903914552584147E-03;
1.402972973972973E+09;1.025552392637391E-02;4.958751230577985E-03;
1.403033034033033E+09;1.048265123475057E-02;4.994403105539140E-03;
1.403093094093093E+09;1.069175760854381E-02;5.046808792063539E-03;
1.403153154153153E+09;1.093214623660302E-02;5.097620069256631E-03;
1.403213214213213E+09;1.115442821699763E-02;5.146819829045941E-03;
1.403273274273273E+09;1.139511854829866E-02;5.190198766908415E-03;
1.403333334333333E+09;1.164903928129667E-02;5.224451815393748E-03;
1.403393394393393E+09;1.190736346476100E-02;5.273359099907184E-03;
1.403453454453454E+09;1.217332492743799E-02;5.326650930037656E-03;
1.403513514513514E+09;1.243036068965845E-02;5.366789545946691E-03;
1.403573574573574E+09;1.269994093310136E-02;5.422478615681443E-03;
1.403633634633634E+09;1.298797758567626E-02;5.464869867223108E-03;
1.403693694693694E+09;1.326096958902807E-02;5.507390236039210E-03;
1.403753754753754E+09;1.356474083123591E-02;5.548219989871947E-03;
1.403813814813814E+09;1.385246770513114E-02;5.585384403635789E-03;
1.403873874873874E+09;1.417836495430565E-02;5.619654841273927E-03;
1.403933934933934E+09;1.448711345707575E-02;5.657151128737454E-03;
1.403993994993994E+09;1.482543741871637E-02;5.704458815785270E-03;
1.404054055054054E+09;1.515142645742619E-02;5.749893611423407E-03;
1.404114115114114E+09;1.550409783295483E-02;5.793204391160003E-03;
1.404174175174174E+09;1.586586139602183E-02;5.809220180862691E-03;
1.404234235234234E+09;1.621390108679820E-02;5.849064838254474E-03;
1.404294295294294E+09;1.658504357452350E-02;5.880577646912933E-03;
1.404354355354354E+09;1.697079709669676E-02;5.911707023300438E-03;
1.404414415414414E+09;1.735113779232670E-02;5.936780290497937E-03;
1.404474475474474E+09;1.774348744160339E-02;5.956343831126532E-03;
1.404534535534534E+09;1.817027696518956E-02;5.982133853870601E-03;
1.404594595594594E+09;1.859990398644017E-02;6.033494561573607E-03;
1.404654655654655E+09;1.906556289549035E-02;6.029223433118552E-03;
1.404714715714715E+09;1.948948535599078E-02;6.041000476864089E-03;
1.404774775774775E+09;1.995105828507127E-02;6.068363662914779E-03;
1.404834835834835E+09;2.042636618476079E-02;6.075509603347431E-03;
1.404894895894895E+09;2.091373010185666E-02;6.098824632787860E-03;
1.404954955954955E+09;2.140545337616283E-02;6.099932774299942E-03;
1.405015016015015E+09;2.192092670551484E-02;6.090664677311446E-03;
1.405075076075075E+09;2.245726538221322E-02;6.089580518196696E-03;
1.405135136135135E+09;2.299223966512072E-02;6.082446835192769E-03;
1.405195196195195E+09;2.356130424838558E-02;6.082218951599416E-03;
1.405255256255255E+09;2.411926551360850E-02;6.056818931862962E-03;
1.405315316315315E+09;2.472006235713380E-02;6.031892898644176E-03;
1.405375376375375E+09;2.532195510578487E-02;6.015817463170542E-03;
1.405435436435436E+09;2.592690656140467E-02;5.962537833087069E-03;
1.405495496495496E+09;2.658379409213045E-02;5.918867345472723E-03;
1.405555556555556E+09;2.725073203512060E-02;5.890413868198706E-03;
1.405615616615616E+09;2.792487493376175E-02;5.828457480742979E-03;
1.405675676675676E+09;2.862956292135826E-02;5.768053791331684E-03;
1.405735736735736E+09;2.933419121086486E-02;5.697357581129986E-03;
1.405795796795796E+09;3.007733664071765E-02;5.627409701411693E-03;
1.405855856855856E+09;3.084888734307012E-02;5.535827278045019E-03;
1.405915916915916E+09;3.161231189954838E-02;5.426692669649714E-03;
1.405975976975976E+09;3.242763324172368E-02;5.335740180381402E-03;
1.406036037036036E+09;3.322724415006181E-02;5.210305768321703E-03;
1.406096097096096E+09;3.409215647233552E-02;5.085956413659871E-03;
1.406156157156156E+09;3.497469973884029E-02;4.933464400729233E-03;
1.406216217216216E+09;3.588634420636870E-02;4.778992191233890E-03;
1.406276277276276E+09;3.680221737960541E-02;4.609296352045351E-03;
1.406336337336336E+09;3.775381550919516E-02;4.423477479273095E-03;
1.406396397396396E+09;3.874802691028631E-02;4.233461890193150E-03;
1.406456457456456E+09;3.977783041548174E-02;4.005654363507066E-03;
1.406516517516516E+09;4.081169668242190E-02;3.779059443744232E-03;
1.406576577576576E+09;4.188388364065982E-02;3.528453629458830E-03;
1.406636637636637E+09;4.297987174767599E-02;3.255899164089656E-03;
1.406696697696697E+09;4.412735592981577E-02;2.952745369130687E-03;
1.406756757756757E+09;4.531098519326059E-02;2.636957606739980E-03;
1.406816817816817E+09;4.651947626206208E-02;2.297842684603568E-03;
1.406876877876877E+09;4.774510046123962E-02;1.925586354940524E-03;
1.406936937936937E+09;4.903625785492665E-02;1.552834977033591E-03;
1.406996997996997E+09;5.036321421986830E-02;1.116401048115785E-03;
1.407057058057057E+09;5.170667501803502E-02;6.553255110237481E-04;
1.407117118117117E+09;5.313123021101940E-02;1.900352059782790E-04;
1.407177178177177E+09;5.457366618949860E-02;-3.469084096925420E-04;
1.407237238237237E+09;5.604055659134833E-02;-9.027508020713042E-04;
1.407297298297297E+09;5.757376335747032E-02;-1.501385751238453E-03;
1.407357358357357E+09;5.914167804631675E-02;-2.131744324121736E-03;
1.407417418417418E+09;6.076958617819519E-02;-2.807847379168733E-03;
1.407477478477478E+09;6.244056167797118E-02;-3.538330145604537E-03;
1.407537538537538E+09;6.416217703620020E-02;-4.307188418029569E-03;
