# Version 1.00
#
freq[Hz];re:Trc1_S21;im:Trc1_S21;
9.000000000000000E+08;2.545883892686098E-01;-7.637735217496061E-01;
9.005002501250626E+08;2.472803843277226E-01;-7.666276275747338E-01;
9.010005002501251E+08;2.399873072203359E-01;-7.692593085498545E-01;
9.015007503751876E+08;2.327800928182387E-01;-7.719762128298119E-01;
9.020010005002501E+08;2.255437079552895E-01;-7.746069845280581E-01;
9.025012506253127E+08;2.184086193180528E-01;-7.770945763188019E-01;
9.030015007503752E+08;2.111694109420280E-01;-7.795508137163462E-01;
9.035017508754377E+08;2.037936468623870E-01;-7.818846848078084E-01;
9.040020010005002E+08;1.965382838105884E-01;-7.842991197899650E-01;
9.045022511255628E+08;1.893926740866380E-01;-7.864276153916584E-01;
9.050025012506254E+08;1.820410216197742E-01;-7.887079117472997E-01;
9.055027513756878E+08;1.747791163687849E-01;-7.907776391345320E-01;
9.060030015007504E+08;1.674413033110753E-01;-7.927682789165096E-01;
9.065032516258129E+08;1.601724372290215E-01;-7.947595209917264E-01;
9.070035017508755E+08;1.530481980042712E-01;-7.967104033393339E-01;
9.075037518759379E+08;1.457526682110278E-01;-7.985902455524601E-01;
9.080040020010005E+08;1.385877116750347E-01;-8.003400224574748E-01;
9.085042521260630E+08;1.311708221769974E-01;-8.022526164186781E-01;
9.090045022511256E+08;1.239335405886456E-01;-8.039438109119698E-01;
9.095047523761880E+08;1.167110696224788E-01;-8.055588941570643E-01;
9.100050025012506E+08;1.094195503382033E-01;-8.071479162267362E-01;
9.105052526263132E+08;1.022419282009744E-01;-8.086645288003620E-01;
9.110055027513757E+08;9.498541551910478E-02;-8.101599677630779E-01;
9.115057528764383E+08;8.764319731930394E-02;-8.114617135009013E-01;
9.120060030015007E+08;8.057734965780780E-02;-8.129534107531502E-01;
9.125062531265633E+08;7.318920494380492E-02;-8.143150828199105E-01;
9.130065032516258E+08;6.604213904629812E-02;-8.155875206908462E-01;
9.135067533766884E+08;5.874753837152909E-02;-8.167958608710325E-01;
9.140070035017508E+08;5.158082395450595E-02;-8.179884875420890E-01;
9.145072536268134E+08;4.424063107113949E-02;-8.190891971164839E-01;
9.150075037518760E+08;3.702835528079469E-02;-8.201053789602356E-01;
9.155077538769385E+08;2.968264168292126E-02;-8.213095196118307E-01;
9.160080040020010E+08;2.267274073160829E-02;-8.222754049927140E-01;
9.165082541270635E+08;1.532477629791998E-02;-8.231510499531104E-01;
9.170085042521261E+08;8.094393872585880E-03;-8.240402827853519E-01;
9.175087543771886E+08;9.639630779606856E-04;-8.247794286778081E-01;
9.180090045022511E+08;-6.410342951167589E-03;-8.258488961296745E-01;
9.185092546273136E+08;-1.362340219183693E-02;-8.266229664230184E-01;
9.190095047523762E+08;-2.095887734066972E-02;-8.274676882106258E-01;
9.195097548774387E+08;-2.821683773205422E-02;-8.281563627652051E-01;
9.200100050025012E+08;-3.570024797580242E-02;-8.288582057036159E-01;
9.205102551275638E+08;-4.285447409771281E-02;-8.293120226008758E-01;
9.210105052526263E+08;-5.017283922166257E-02;-8.299381042361246E-01;
9.215107553776889E+08;-5.739658593993973E-02;-8.305477536010247E-01;
9.220110055027514E+08;-6.464466234404286E-02;-8.309849865474412E-01;
9.225112556278139E+08;-7.215992512259604E-02;-8.313945648817023E-01;
9.230115057528764E+08;-7.952152761705293E-02;-8.319821011113360E-01;
9.235117558779390E+08;-8.685652136796838E-02;-8.322292098943778E-01;
9.240120060030015E+08;-9.431629575794348E-02;-8.326944488673463E-01;
9.245122561280640E+08;-1.017031524438669E-01;-8.328122224040162E-01;
9.250125062531266E+08;-1.091947355535088E-01;-8.331716484534042E-01;
9.255127563781891E+08;-1.165034142272134E-01;-8.333668462591057E-01;
9.260130065032517E+08;-1.238963081179436E-01;-8.335375648989464E-01;
9.265132566283141E+08;-1.314409969978432E-01;-8.336274970425231E-01;
9.270135067533767E+08;-1.389373577514622E-01;-8.337605901901892E-01;
9.275137568784392E+08;-1.464649027668711E-01;-8.335839960739992E-01;
9.280140070035018E+08;-1.540111765224471E-01;-8.336303384775205E-01;
9.285142571285642E+08;-1.616646878847544E-01;-8.336329895663711E-01;
9.290145072536268E+08;-1.691541829022382E-01;-8.334464019885818E-01;
9.295147573786893E+08;-1.768635653209229E-01;-8.332801801912445E-01;
9.300150075037519E+08;-1.844376996933461E-01;-8.330410740417590E-01;
9.305152576288145E+08;-1.920440513461338E-01;-8.327967676240582E-01;
9.310155077538769E+08;-1.997707366866861E-01;-8.322946976508172E-01;
9.315157578789395E+08;-2.074033284811461E-01;-8.319256625245098E-01;
9.320160080040020E+08;-2.151751709709446E-01;-8.315816704875086E-01;
9.325162581290646E+08;-2.228822232274357E-01;-8.311149652372668E-01;
9.330165082541270E+08;-2.306702193757247E-01;-8.305761092022989E-01;
9.335167583791896E+08;-2.384013339893336E-01;-8.299084070849198E-01;
9.340170085042521E+08;-2.462337393660484E-01;-8.291971785433419E-01;
9.345172586293147E+08;-2.541801954034739E-01;-8.285161057826477E-01;
9.350175087543771E+08;-2.620186017617330E-01;-8.277579042339744E-01;
9.355177588794397E+08;-2.700176822114438E-01;-8.268543475875626E-01;
9.360180090045023E+08;-2.780513621849658E-01;-8.257503417908130E-01;
9.365182591295648E+08;-2.859390126421625E-01;-8.248640543361642E-01;
9.370185092546273E+08;-2.939597037583995E-01;-8.236395244544253E-01;
9.375187593796898E+08;-3.018420016218500E-01;-8.224799640293802E-01;
9.380190095047524E+08;-3.100072803125058E-01;-8.212012844064354E-01;
9.385192596298149E+08;-3.180163465201450E-01;-8.199063409290293E-01;
9.390195097548774E+08;-3.261710037200608E-01;-8.185267443265698E-01;
9.395197598799400E+08;-3.342150361973631E-01;-8.169808378511101E-01;
9.400200100050025E+08;-3.423770478324377E-01;-8.155179975184977E-01;
9.405202601300651E+08;-3.503796432105217E-01;-8.138695136588591E-01;
9.410205102551275E+08;-3.586188080386983E-01;-8.119851378007432E-01;
9.415207603801901E+08;-3.667968737674646E-01;-8.101005457093606E-01;
9.420210105052526E+08;-3.750133329875280E-01;-8.083306654057711E-01;
9.425212606303152E+08;-3.831817224686100E-01;-8.063532457197224E-01;
9.430215107553777E+08;-3.913227248731507E-01;-8.041845474902328E-01;
9.435217608804402E+08;-3.997425512371846E-01;-8.020613891733498E-01;
9.440220110055027E+08;-4.079575481249067E-01;-7.997195413097310E-01;
9.445222611305653E+08;-4.161766302229628E-01;-7.975033520046124E-01;
9.450225112556279E+08;-4.244792094008401E-01;-7.949656847062787E-01;
9.455227613806903E+08;-4.328011404629427E-01;-7.922676312393626E-01;
9.460230115057529E+08;-4.410578975302777E-01;-7.895895811558608E-01;
9.465232616308154E+08;-4.493414543720659E-01;-7.866818915854545E-01;
9.470235117558780E+08;-4.576327255989145E-01;-7.839443274379854E-01;
9.475237618809404E+08;-4.657960970706949E-01;-7.809188342925124E-01;
9.480240120060030E+08;-4.742643546877857E-01;-7.777120762146836E-01;
9.485242621310655E+08;-4.824567223348143E-01;-7.744699851734554E-01;
9.490245122561281E+08;-4.905589956218081E-01;-7.711498912972613E-01;
9.495247623811905E+08;-4.988145546851045E-01;-7.678511936448040E-01;
9.500250125062531E+08;-5.070287464125918E-01;-7.640814738461064E-01;
9.505252626313157E+08;-5.151962705893904E-01;-7.605680363075183E-01;
9.510255127563782E+08;-5.234420843157094E-01;-7.567805391555658E-01;
9.515257628814408E+08;-5.316424190757443E-01;-7.529061681167282E-01;
9.520260130065032E+08;-5.397665142942633E-01;-7.490305686551079E-01;
9.525262631315658E+08;-5.476828223737816E-01;-7.448618969462794E-01;
9.530265132566283E+08;-5.558599223318920E-01;-7.406908579756502E-01;
9.535267633816909E+08;-5.639661501799922E-01;-7.364070577282170E-01;
9.540270135067533E+08;-5.720068559197461E-01;-7.319994489914613E-01;
9.545272636318159E+08;-5.798741417296275E-01;-7.274528014798998E-01;
9.550275137568785E+08;-5.878366682649643E-01;-7.228787277117182E-01;
9.555277638819410E+08;-5.958347015475061E-01;-7.180826933647744E-01;
9.560280140070035E+08;-6.035545274939902E-01;-7.132965688185144E-01;
9.565282641320660E+08;-6.115754067828942E-01;-7.082692488718723E-01;
9.570285142571286E+08;-6.192779526190761E-01;-7.031661208035053E-01;
9.575287643821911E+08;-6.268325974753807E-01;-6.980025725589265E-01;
9.580290145072536E+08;-6.344700320616915E-01;-6.925735626060072E-01;
9.585292646323161E+08;-6.420756703669126E-01;-6.871249893184543E-01;
9.590295147573787E+08;-6.496169317145987E-01;-6.817067251513609E-01;
9.595297648824413E+08;-6.570428001061044E-01;-6.759377676767749E-01;
9.600300150075037E+08;-6.643960807057121E-01;-6.704645706907328E-01;
9.605302651325663E+08;-6.715914824489838E-01;-6.646165359676909E-01;
9.610305152576288E+08;-6.787827105685240E-01;-6.586062874447843E-01;
9.615307653826914E+08;-6.860111284151866E-01;-6.527163915142633E-01;
9.620310155077538E+08;-6.931321564850149E-01;-6.466479494815733E-01;
9.625312656328164E+08;-6.999098616188640E-01;-6.405422228465650E-01;
9.630315157578789E+08;-7.069027592049805E-01;-6.342541976760482E-01;
9.635317658829415E+08;-7.136614901773634E-01;-6.279343877525074E-01;
9.640320160080040E+08;-7.204118575791034E-01;-6.214585673648209E-01;
9.645322661330665E+08;-7.270572557774412E-01;-6.150324063165913E-01;
9.650325162581291E+08;-7.336346648089097E-01;-6.085503630680954E-01;
9.655327663831916E+08;-7.401313582100500E-01;-6.018758255799029E-01;
9.660330165082542E+08;-7.464864518459172E-01;-5.950539421419713E-01;
9.665332666333166E+08;-7.528368623686995E-01;-5.882357417700391E-01;
9.670335167583792E+08;-7.588872169313234E-01;-5.814611736438579E-01;
9.675337668834417E+08;-7.649566975066195E-01;-5.744812298564237E-01;
9.680340170085043E+08;-7.709593531833701E-01;-5.675513163831114E-01;
9.685342671335667E+08;-7.769329105151401E-01;-5.605634196303886E-01;
9.690345172586293E+08;-7.826512898486427E-01;-5.534722876219982E-01;
9.695347673836918E+08;-7.883603726386109E-01;-5.463318979343276E-01;
9.700350175087544E+08;-7.938934856551059E-01;-5.389943026597259E-01;
9.705352676338170E+08;-7.994161452350417E-01;-5.319415585551105E-01;
9.710355177588794E+08;-8.048021765125651E-01;-5.247567126897120E-01;
9.715357678839420E+08;-8.100490623311943E-01;-5.173419478170197E-01;
9.720360180090045E+08;-8.152551652854279E-01;-5.101264629820945E-01;
9.725362681340671E+08;-8.205815453227407E-01;-5.026884117914524E-01;
9.730365182591295E+08;-8.255026468385973E-01;-4.952944798719018E-01;
9.735367683841921E+08;-8.305549466818800E-01;-4.878175651661129E-01;
9.740370185092547E+08;-8.353714711974680E-01;-4.804172664294216E-01;
9.745372686343172E+08;-8.400498471302680E-01;-4.729303812926268E-01;
9.750375187593796E+08;-8.447061283243201E-01;-4.653295848952069E-01;
9.755377688844422E+08;-8.490031250978232E-01;-4.578819709913868E-01;
9.760380190095048E+08;-8.536036249806985E-01;-4.504753641688627E-01;
9.765382691345673E+08;-8.578337283201030E-01;-4.429091765236386E-01;
9.770385192596298E+08;-8.623090484817392E-01;-4.353751927910673E-01;
9.775387693846923E+08;-8.664834155326404E-01;-4.277605731948295E-01;
9.780390195097549E+08;-8.705753375954379E-01;-4.201698404798758E-01;
9.785392696348174E+08;-8.746438570859658E-01;-4.125103714755882E-01;
9.790395197598799E+08;-8.787193771325830E-01;-4.049662991681018E-01;
9.795397698849425E+08;-8.826391187865926E-01;-3.974039470052867E-01;
9.800400200100050E+08;-8.864227454162669E-01;-3.897960760179706E-01;
9.805402701350676E+08;-8.901487954372811E-01;-3.821143247106288E-01;
9.810405202601300E+08;-8.937894922121027E-01;-3.745189610089568E-01;
9.815407703851926E+08;-8.975364224461861E-01;-3.669015702458885E-01;
9.820410205102551E+08;-9.010591015496477E-01;-3.594249567331432E-01;
9.825412706353177E+08;-9.046539446524823E-01;-3.518213840452584E-01;
9.830415207603801E+08;-9.081076568638881E-01;-3.442095592877961E-01;
9.835417708854427E+08;-9.115478441488181E-01;-3.365522764578995E-01;
9.840420210105052E+08;-9.147901303940593E-01;-3.290934887908358E-01;
9.845422711355678E+08;-9.179849054637023E-01;-3.216000113558766E-01;
9.850425212606304E+08;-9.213208115661458E-01;-3.137827844210927E-01;
9.855427713856928E+08;-9.244394760554536E-01;-3.063133477078920E-01;
9.860430215107554E+08;-9.275464063500555E-01;-2.985685516256099E-01;
9.865432716358179E+08;-9.305372746787950E-01;-2.911749982784055E-01;
9.870435217608805E+08;-9.337361846837233E-01;-2.834462406060411E-01;
9.875437718859429E+08;-9.366226630703887E-01;-2.758808977240518E-01;
9.880440220110055E+08;-9.396457031446791E-01;-2.683063000529196E-01;
9.885442721360680E+08;-9.425426854344017E-01;-2.607431400999209E-01;
9.890445222611306E+08;-9.455138301291268E-01;-2.531277527894322E-01;
9.895447723861930E+08;-9.483736194853585E-01;-2.454553247830609E-01;
9.900450225112556E+08;-9.509962751025156E-01;-2.378537125750683E-01;
9.905452726363182E+08;-9.539490013426385E-01;-2.301672340514554E-01;
9.910455227613807E+08;-9.567493929159687E-01;-2.226278071154244E-01;
9.915457728864433E+08;-9.594522652354067E-01;-2.149010136106769E-01;
9.920460230115057E+08;-9.620203094817298E-01;-2.072207104219939E-01;
9.925462731365683E+08;-9.648841551711419E-01;-1.994128499974409E-01;
9.930465232616308E+08;-9.673318330032009E-01;-1.918306711879306E-01;
9.935467733866934E+08;-9.700691388213794E-01;-1.839702371421505E-01;
9.940470235117559E+08;-9.727120722062120E-01;-1.763174738283820E-01;
9.945472736368184E+08;-9.751694281646307E-01;-1.684806164815809E-01;
9.950475237618809E+08;-9.776613252501806E-01;-1.605426729513782E-01;
9.955477738869435E+08;-9.801031277326642E-01;-1.529011248823869E-01;
9.960480240120060E+08;-9.826886765573046E-01;-1.448745621344228E-01;
9.965482741370685E+08;-9.849361156167457E-01;-1.371745454683428E-01;
9.970485242621311E+08;-9.874733194646742E-01;-1.291256054914631E-01;
9.975487743871936E+08;-9.899077907869358E-01;-1.212545689257967E-01;
9.980490245122561E+08;-9.920958651320961E-01;-1.132340094624444E-01;
9.985492746373186E+08;-9.946084968379676E-01;-1.051909422283541E-01;
9.990495247623812E+08;-9.967994612700304E-01;-9.703401329118069E-02;
9.995497748874438E+08;-9.990640766435808E-01;-8.908072243511427E-02;
1.000050025012506E+09;-1.001521621441916E+00;-8.083793727997432E-02;
1.000550275137569E+09;-1.003638235605576E+00;-7.263818368743949E-02;
1.001050525262631E+09;-1.005677807914906E+00;-6.435483942648196E-02;
1.001550775387694E+09;-1.007903365800733E+00;-5.605408196399836E-02;
1.002051025512756E+09;-1.010052001017507E+00;-4.751126365954578E-02;
1.002551275637819E+09;-1.011972382139974E+00;-3.919254345187227E-02;
1.003051525762881E+09;-1.014070472385889E+00;-3.041377623732458E-02;
1.003551775887944E+09;-1.016079195538524E+00;-2.190203893920777E-02;
1.004052026013006E+09;-1.018043724093528E+00;-1.319343522933647E-02;
1.004552276138069E+09;-1.019840299808138E+00;-4.586945898828866E-03;
1.005052526263132E+09;-1.021744286485199E+00;4.148508059245437E-03;
1.005552776388194E+09;-1.023471203061530E+00;1.300286558975718E-02;
1.006053026513257E+09;-1.025129745005758E+00;2.192960605726943E-02;
1.006553276638319E+09;-1.026815507059365E+00;3.075298496148771E-02;
1.007053526763382E+09;-1.028182298757210E+00;3.986435156698874E-02;
1.007553776888444E+09;-1.029820808770914E+00;4.884772303580294E-02;
1.008054027013507E+09;-1.031086665243171E+00;5.802061218750530E-02;
1.008554277138569E+09;-1.032697422467242E+00;6.711749914893779E-02;
1.009054527263632E+09;-1.034000701634623E+00;7.654231855334656E-02;
1.009554777388694E+09;-1.035176731362193E+00;8.566171438021354E-02;
1.010055027513757E+09;-1.036412465956933E+00;9.520326170194940E-02;
1.010555277638819E+09;-1.037481620911766E+00;1.046946119327736E-01;
1.011055527763882E+09;-1.038559593777671E+00;1.143073237467732E-01;
1.011555777888945E+09;-1.039296718904775E+00;1.238943545388455E-01;
1.012056028014007E+09;-1.040150564859176E+00;1.336265299652039E-01;
1.012556278139070E+09;-1.040882102961590E+00;1.433982620030749E-01;
1.013056528264132E+09;-1.041500767012820E+00;1.530143089214288E-01;
1.013556778389195E+09;-1.042169647560595E+00;1.631766606540727E-01;
1.014057028514257E+09;-1.042606463469054E+00;1.730392944025159E-01;
1.014557278639320E+09;-1.042697849846890E+00;1.829756350630575E-01;
1.015057528764382E+09;-1.043066792112648E+00;1.930385853741930E-01;
1.015557778889445E+09;-1.043175004393203E+00;2.032192485744133E-01;
1.016058029014507E+09;-1.042934981490800E+00;2.132928025512292E-01;
1.016558279139570E+09;-1.042697781683001E+00;2.237598274877292E-01;
1.017058529264632E+09;-1.042623419830300E+00;2.340082408901994E-01;
1.017558779389695E+09;-1.042023069928005E+00;2.443488786729889E-01;
1.018059029514757E+09;-1.041436662281930E+00;2.548072002831784E-01;
1.018559279639820E+09;-1.040857800381023E+00;2.651205810710082E-01;
1.019059529764882E+09;-1.040130019454535E+00;2.756511583628322E-01;
1.019559779889945E+09;-1.039035075055666E+00;2.860994200419159E-01;
1.020060030015007E+09;-1.037804676250797E+00;2.968521157466434E-01;
1.020560280140070E+09;-1.036780007111789E+00;3.074758740982819E-01;
1.021060530265133E+09;-1.035111573849025E+00;3.180147638974698E-01;
1.021560780390195E+09;-1.033712604085221E+00;3.286499864678738E-01;
1.022061030515258E+09;-1.032001467597984E+00;3.394366221530324E-01;
1.022561280640320E+09;-1.030188812811159E+00;3.500875017823319E-01;
1.023061530765383E+09;-1.028127170087054E+00;3.610483898880915E-01;
1.023561780890445E+09;-1.025797911564876E+00;3.715898935475232E-01;
1.024062031015508E+09;-1.023551162318760E+00;3.824741213637954E-01;
1.024562281140570E+09;-1.020943978680454E+00;3.931079314634974E-01;
1.025062531265633E+09;-1.018199917231607E+00;4.039705620786083E-01;
1.025562781390695E+09;-1.015428806789576E+00;4.146364862865846E-01;
1.026063031515758E+09;-1.012451348458183E+00;4.255524409979885E-01;
1.026563281640820E+09;-1.009339736008526E+00;4.362486094624110E-01;
1.027063531765883E+09;-1.005678339154290E+00;4.469515180160682E-01;
1.027563781890945E+09;-1.002209833297665E+00;4.574591505881407E-01;
1.028064032016008E+09;-9.985294591378222E-01;4.680514744484034E-01;
1.028564282141070E+09;-9.945814238282041E-01;4.786540346412319E-01;
1.029064532266133E+09;-9.907241401972313E-01;4.891972616175098E-01;
1.029564782391196E+09;-9.864223458646285E-01;4.997590026939256E-01;
1.030065032516258E+09;-9.819532498566904E-01;5.102554345862590E-01;
1.030565282641321E+09;-9.772665756066040E-01;5.205370980214012E-01;
1.031065532766383E+09;-9.725961325004850E-01;5.310046196267516E-01;
1.031565782891446E+09;-9.676483838688108E-01;5.410618856236221E-01;
1.032066033016508E+09;-9.626393277593756E-01;5.513156196905649E-01;
1.032566283141571E+09;-9.574430273931938E-01;5.615232948394919E-01;
1.033066533266633E+09;-9.520493726832202E-01;5.714839466568955E-01;
1.033566783391696E+09;-9.464484005116560E-01;5.814951145601138E-01;
1.034067033516758E+09;-9.407665886499668E-01;5.912442122101084E-01;
1.034567283641821E+09;-9.349947903629370E-01;6.009598407388153E-01;
1.035067533766883E+09;-9.290681609948501E-01;6.108138936695917E-01;
1.035567783891946E+09;-9.227436909938129E-01;6.202995587432956E-01;
1.036068034017009E+09;-9.165765840999134E-01;6.296400741883168E-01;
1.036568284142071E+09;-9.100059262739743E-01;6.390301191096674E-01;
1.037068534267134E+09;-9.034642723519761E-01;6.483137370274126E-01;
1.037568784392196E+09;-8.968185391408107E-01;6.573653186416047E-01;
1.038069034517259E+09;-8.890258812463627E-01;6.665376621882233E-01;
1.038569284642321E+09;-8.821727516902783E-01;6.752183625513875E-01;
1.039069534767384E+09;-8.751394067645887E-01;6.839699097053349E-01;
1.039569784892446E+09;-8.679309838982713E-01;6.925375333834685E-01;
1.040070035017509E+09;-8.605845178277285E-01;7.006664987680248E-01;
1.040570285142571E+09;-8.532356414891515E-01;7.088707170594730E-01;
1.041070535267634E+09;-8.457727663692981E-01;7.168906809428411E-01;
1.041570785392696E+09;-8.381290879931824E-01;7.248436719684832E-01;
1.042071035517759E+09;-8.306285508833938E-01;7.328157758714882E-01;
1.042571285642821E+09;-8.229353602736404E-01;7.404488887119485E-01;
