# Version 1.00
#
freq[Hz];re:Trc1_S21;im:Trc1_S21;
9.000000000000000E+08;1.927770560696297E-01;-7.862378236665974E-01;
9.005002501250626E+08;1.852050197877792E-01;-7.879058386809623E-01;
9.010005002501251E+08;1.777544220466009E-01;-7.896896730675147E-01;
9.015007503751876E+08;1.703055953330930E-01;-7.913003470512143E-01;
9.020010005002501E+08;1.628004088227633E-01;-7.926833169027648E-01;
9.025012506253127E+08;1.554473195474937E-01;-7.942099458711529E-01;
9.030015007503752E+08;1.481149895217288E-01;-7.956268074274268E-01;
9.035017508754377E+08;1.408431398005332E-01;-7.969276707239860E-01;
9.040020010005002E+08;1.333968524659262E-01;-7.982221807453915E-01;
9.045022511255628E+08;1.262115272205125E-01;-7.994700039495659E-01;
9.050025012506254E+08;1.186642434770453E-01;-8.006255016971450E-01;
9.055027513756878E+08;1.114314234340528E-01;-8.017365788223914E-01;
9.060030015007504E+08;1.041327321300372E-01;-8.028670702496432E-01;
9.065032516258129E+08;9.681458139191765E-02;-8.038818560759082E-01;
9.070035017508755E+08;8.963557403159401E-02;-8.049346745366717E-01;
9.075037518759379E+08;8.246016578059198E-02;-8.058616531320397E-01;
9.080040020010005E+08;7.511587529043158E-02;-8.067578855883060E-01;
9.085042521260630E+08;6.785224849769991E-02;-8.076925460785668E-01;
9.090045022511256E+08;6.068217193513926E-02;-8.083876760020219E-01;
9.095047523761880E+08;5.334935992748437E-02;-8.091828725556841E-01;
9.100050025012506E+08;4.628225348826892E-02;-8.098511952818280E-01;
9.105052526263132E+08;3.897301566149635E-02;-8.105406196122047E-01;
9.110055027513757E+08;3.184052321591279E-02;-8.112392693854034E-01;
9.115057528764383E+08;2.474664706164359E-02;-8.116487908407173E-01;
9.120060030015007E+08;1.762894954330142E-02;-8.122217586112077E-01;
9.125062531265633E+08;1.040326191826384E-02;-8.127197199669817E-01;
9.130065032516258E+08;3.338343335097868E-03;-8.131609204921586E-01;
9.135067533766884E+08;-3.850933760117848E-03;-8.136440117465880E-01;
9.140070035017508E+08;-1.092224669849876E-02;-8.138513384657522E-01;
9.145072536268134E+08;-1.808721929086106E-02;-8.142245779289277E-01;
9.150075037518760E+08;-2.522133008872843E-02;-8.145739820423435E-01;
9.155077538769385E+08;-3.220980037936574E-02;-8.147946803709329E-01;
9.160080040020010E+08;-3.914589184696867E-02;-8.151364387451207E-01;
9.165082541270635E+08;-4.639711992145275E-02;-8.152110068505685E-01;
9.170085042521261E+08;-5.345270945850437E-02;-8.153374243182631E-01;
9.175087543771886E+08;-6.051689551297554E-02;-8.155633164977905E-01;
9.180090045022511E+08;-6.762797634765326E-02;-8.156378697481462E-01;
9.185092546273136E+08;-7.463259446845180E-02;-8.156258571593807E-01;
9.190095047523762E+08;-8.183213295082975E-02;-8.157554170244823E-01;
9.195097548774387E+08;-8.889518003332741E-02;-8.156259220895442E-01;
9.200100050025012E+08;-9.609531563135514E-02;-8.156634934789178E-01;
9.205102551275638E+08;-1.032254605604847E-01;-8.154561268435868E-01;
9.210105052526263E+08;-1.103360467219108E-01;-8.153374768945266E-01;
9.215107553776889E+08;-1.174903333416130E-01;-8.152320738989981E-01;
9.220110055027514E+08;-1.246670975449325E-01;-8.149324075323749E-01;
9.225112556278139E+08;-1.318456998026651E-01;-8.147004295236451E-01;
9.230115057528764E+08;-1.388987432135141E-01;-8.145324885888530E-01;
9.235117558779390E+08;-1.461590202154693E-01;-8.141754332554418E-01;
9.240120060030015E+08;-1.533564863974007E-01;-8.137876440306743E-01;
9.245122561280640E+08;-1.604857433704635E-01;-8.133751080110323E-01;
9.250125062531266E+08;-1.676682884254234E-01;-8.129709630281272E-01;
9.255127563781891E+08;-1.750316491263224E-01;-8.125316056819134E-01;
9.260130065032517E+08;-1.821437983831943E-01;-8.117948037182473E-01;
9.265132566283141E+08;-1.894317715131675E-01;-8.112275151798102E-01;
9.270135067533767E+08;-1.967599332826754E-01;-8.106504854067355E-01;
9.275137568784392E+08;-2.040573296985205E-01;-8.099622100290047E-01;
9.280140070035018E+08;-2.114534558424636E-01;-8.093030061414023E-01;
9.285142571285642E+08;-2.188506816787635E-01;-8.083816381521483E-01;
9.290145072536268E+08;-2.261458749533216E-01;-8.077501211256288E-01;
9.295147573786893E+08;-2.334616062814808E-01;-8.068907755617033E-01;
9.300150075037519E+08;-2.409505302261821E-01;-8.060564849400431E-01;
9.305152576288145E+08;-2.482799762651992E-01;-8.048534770858788E-01;
9.310155077538769E+08;-2.556767409204005E-01;-8.039625686289131E-01;
9.315157578789395E+08;-2.632793312794049E-01;-8.027900793959263E-01;
9.320160080040020E+08;-2.706269675151434E-01;-8.018384015688237E-01;
9.325162581290646E+08;-2.781096828021518E-01;-8.005634530211222E-01;
9.330165082541270E+08;-2.857200117568390E-01;-7.991874474272314E-01;
9.335167583791896E+08;-2.931004911456925E-01;-7.979898109369803E-01;
9.340170085042521E+08;-3.006365953743115E-01;-7.965370367568210E-01;
9.345172586293147E+08;-3.083470519217386E-01;-7.950849314503138E-01;
9.350175087543771E+08;-3.159018436530215E-01;-7.936855867753334E-01;
9.355177588794397E+08;-3.233702292959868E-01;-7.919626801491759E-01;
9.360180090045023E+08;-3.310971467650035E-01;-7.902781794737544E-01;
9.365182591295648E+08;-3.388803786777250E-01;-7.885766192499031E-01;
9.370185092546273E+08;-3.464974704557514E-01;-7.867116196370437E-01;
9.375187593796898E+08;-3.541784692817630E-01;-7.848630405621836E-01;
9.380190095047524E+08;-3.617730342854651E-01;-7.830298509932129E-01;
9.385192596298149E+08;-3.694742319025292E-01;-7.808474852629362E-01;
9.390195097548774E+08;-3.771519403860428E-01;-7.787905567066902E-01;
9.395197598799400E+08;-3.846962782976105E-01;-7.765842848913389E-01;
9.400200100050025E+08;-3.927174125193197E-01;-7.743110786910742E-01;
9.405202601300651E+08;-4.002301661038352E-01;-7.718852957269617E-01;
9.410205102551275E+08;-4.081021130281436E-01;-7.693311793197539E-01;
9.415207603801901E+08;-4.158251360016993E-01;-7.668469000347521E-01;
9.420210105052526E+08;-4.236508980947213E-01;-7.642573281815718E-01;
9.425212606303152E+08;-4.312586827509374E-01;-7.616464207054556E-01;
9.430215107553777E+08;-4.391391355249334E-01;-7.587000587420235E-01;
9.435217608804402E+08;-4.470325115575693E-01;-7.557341952958847E-01;
9.440220110055027E+08;-4.545967771936734E-01;-7.528186358538113E-01;
9.445222611305653E+08;-4.624173831557478E-01;-7.496999695404225E-01;
9.450225112556279E+08;-4.701785712900760E-01;-7.465449160204435E-01;
9.455227613806903E+08;-4.778651871375152E-01;-7.433916166597556E-01;
9.460230115057529E+08;-4.855266066108888E-01;-7.399274611665952E-01;
9.465232616308154E+08;-4.932942471750411E-01;-7.365208147374936E-01;
9.470235117558780E+08;-5.011254802156001E-01;-7.328541590854782E-01;
9.475237618809404E+08;-5.088039915432561E-01;-7.292023645523803E-01;
9.480240120060030E+08;-5.164922533283554E-01;-7.252998054781992E-01;
9.485242621310655E+08;-5.240136602314188E-01;-7.216367530666010E-01;
9.490245122561281E+08;-5.316504933786622E-01;-7.174140613949430E-01;
9.495247623811905E+08;-5.393364437817085E-01;-7.132978950433452E-01;
9.500250125062531E+08;-5.468424800643151E-01;-7.091479920624567E-01;
9.505252626313157E+08;-5.542419302844673E-01;-7.047641577025354E-01;
9.510255127563782E+08;-5.618778010002770E-01;-7.004955577788332E-01;
9.515257628814408E+08;-5.692268281408408E-01;-6.960779409094155E-01;
9.520260130065032E+08;-5.767314011344522E-01;-6.914517180348494E-01;
9.525262631315658E+08;-5.839525576835409E-01;-6.865906505479272E-01;
9.530265132566283E+08;-5.913157834725027E-01;-6.819360720895126E-01;
9.535267633816909E+08;-5.985553789412082E-01;-6.769755889485281E-01;
9.540270135067533E+08;-6.057022883851044E-01;-6.719799354021286E-01;
9.545272636318159E+08;-6.130311948465172E-01;-6.668835812825985E-01;
9.550275137568785E+08;-6.201060969656125E-01;-6.617685984978400E-01;
9.555277638819410E+08;-6.270046746414759E-01;-6.564749634488130E-01;
9.560280140070035E+08;-6.341497793159436E-01;-6.510786500087957E-01;
9.565282641320660E+08;-6.412087935076680E-01;-6.456628282369018E-01;
9.570285142571286E+08;-6.479621069494549E-01;-6.401355713231125E-01;
9.575287643821911E+08;-6.547407571248561E-01;-6.343933746873943E-01;
9.580290145072536E+08;-6.614579852658887E-01;-6.285592823147571E-01;
9.585292646323161E+08;-6.682674078658587E-01;-6.225677410447799E-01;
9.590295147573787E+08;-6.747130134362714E-01;-6.169459750985810E-01;
9.595297648824413E+08;-6.812540645109035E-01;-6.108369134267895E-01;
9.600300150075037E+08;-6.875623261844581E-01;-6.048192735923116E-01;
9.605302651325663E+08;-6.941661260329580E-01;-5.985442045562623E-01;
9.610305152576288E+08;-7.003121848623119E-01;-5.922944900245019E-01;
9.615307653826914E+08;-7.063457038027501E-01;-5.860314142045059E-01;
9.620310155077538E+08;-7.124526792571879E-01;-5.797199479515147E-01;
9.625312656328164E+08;-7.184030395684166E-01;-5.731222081369399E-01;
9.630315157578789E+08;-7.245124091370779E-01;-5.665740303338080E-01;
9.635317658829415E+08;-7.302314729500811E-01;-5.601198042177561E-01;
9.640320160080040E+08;-7.358838111568091E-01;-5.534078085966310E-01;
9.645322661330665E+08;-7.415440149210443E-01;-5.466624830033572E-01;
9.650325162581291E+08;-7.471283735574840E-01;-5.400801029645176E-01;
9.655327663831916E+08;-7.525035398959105E-01;-5.331263938622764E-01;
9.660330165082542E+08;-7.579711112216729E-01;-5.263888751773064E-01;
9.665332666333166E+08;-7.632162801044134E-01;-5.194239821782795E-01;
9.670335167583792E+08;-7.684542602970978E-01;-5.125769122528095E-01;
9.675337668834417E+08;-7.735642738187360E-01;-5.055062614305936E-01;
9.680340170085043E+08;-7.784683179699469E-01;-4.985100712611625E-01;
9.685342671335667E+08;-7.833369719414578E-01;-4.913194680226002E-01;
9.690345172586293E+08;-7.881851714551694E-01;-4.842795210044507E-01;
9.695347673836918E+08;-7.928320534564725E-01;-4.770481881307505E-01;
9.700350175087544E+08;-7.974194658202228E-01;-4.701244416336929E-01;
9.705352676338170E+08;-8.019624692388945E-01;-4.628562846651404E-01;
9.710355177588794E+08;-8.064386221093968E-01;-4.555525405355002E-01;
9.715357678839420E+08;-8.106155108020784E-01;-4.485671785676251E-01;
9.720360180090045E+08;-8.149490244932094E-01;-4.413070251574363E-01;
9.725362681340671E+08;-8.190582255630720E-01;-4.340732533549693E-01;
9.730365182591295E+08;-8.230738594144291E-01;-4.266866945319779E-01;
9.735367683841921E+08;-8.269640189248300E-01;-4.195507560119023E-01;
9.740370185092547E+08;-8.308995196422481E-01;-4.123609589556153E-01;
9.745372686343172E+08;-8.346431039050540E-01;-4.051054398840610E-01;
9.750375187593796E+08;-8.384189918275804E-01;-3.976988959916246E-01;
9.755377688844422E+08;-8.420623147388892E-01;-3.905102610252460E-01;
9.760380190095048E+08;-8.457075045554060E-01;-3.832374462453264E-01;
9.765382691345673E+08;-8.491096348469397E-01;-3.758754705727108E-01;
9.770385192596298E+08;-8.525488631539767E-01;-3.686895773952713E-01;
9.775387693846923E+08;-8.559099691768189E-01;-3.614580260056160E-01;
9.780390195097549E+08;-8.592310144165017E-01;-3.541986213710598E-01;
9.785392696348174E+08;-8.622912811415928E-01;-3.469113821728484E-01;
9.790395197598799E+08;-8.655880489624420E-01;-3.397603464009304E-01;
9.795397698849425E+08;-8.687717385832386E-01;-3.325701892385107E-01;
9.800400200100050E+08;-8.716807561900870E-01;-3.253028749437460E-01;
9.805402701350676E+08;-8.745068102229553E-01;-3.180582946930745E-01;
9.810405202601300E+08;-8.774794898168461E-01;-3.109103896005594E-01;
9.815407703851926E+08;-8.802528677150043E-01;-3.036690620554374E-01;
9.820410205102551E+08;-8.830545648415720E-01;-2.966915659994071E-01;
9.825412706353177E+08;-8.858716893765466E-01;-2.893531385822307E-01;
9.830415207603801E+08;-8.886533154189443E-01;-2.821543513227229E-01;
9.835417708854427E+08;-8.911849214220704E-01;-2.749048465516962E-01;
9.840420210105052E+08;-8.939515867841186E-01;-2.678964650869908E-01;
9.845422711355678E+08;-8.965840087381687E-01;-2.608121533962350E-01;
9.850425212606304E+08;-8.990673623582005E-01;-2.535359169681560E-01;
9.855427713856928E+08;-9.016027082834583E-01;-2.465407973003914E-01;
9.860430215107554E+08;-9.039635513347549E-01;-2.395578413696016E-01;
9.865432716358179E+08;-9.064118004777576E-01;-2.323188296970569E-01;
9.870435217608805E+08;-9.089581045676718E-01;-2.251912008499531E-01;
9.875437718859429E+08;-9.113283452406351E-01;-2.182505759651508E-01;
9.880440220110055E+08;-9.137849386815154E-01;-2.110799188805337E-01;
9.885442721360680E+08;-9.160642409983963E-01;-2.038229891936343E-01;
9.890445222611306E+08;-9.183595672187242E-01;-1.968959731555114E-01;
9.895447723861930E+08;-9.207443139134240E-01;-1.897314267346786E-01;
9.900450225112556E+08;-9.228908793657231E-01;-1.827073702623575E-01;
9.905452726363182E+08;-9.252759953239189E-01;-1.754904725321639E-01;
9.910455227613807E+08;-9.274622342819520E-01;-1.685512842281796E-01;
9.915457728864433E+08;-9.297976348197931E-01;-1.612284672781967E-01;
9.920460230115057E+08;-9.319461316799648E-01;-1.541405460743915E-01;
9.925462731365683E+08;-9.342060928058696E-01;-1.470053213661009E-01;
9.930465232616308E+08;-9.361957704630840E-01;-1.396571320586144E-01;
9.935467733866934E+08;-9.383935270226976E-01;-1.324949243273977E-01;
9.940470235117559E+08;-9.406695021919582E-01;-1.253511312006655E-01;
9.945472736368184E+08;-9.426228543060302E-01;-1.181756878514062E-01;
9.950475237618809E+08;-9.447675691813795E-01;-1.108683744300975E-01;
9.955477738869435E+08;-9.468210977344093E-01;-1.034461543508932E-01;
9.960480240120060E+08;-9.489415370094737E-01;-9.611675915663942E-02;
9.965482741370685E+08;-9.510749891385026E-01;-8.870726956541780E-02;
9.970485242621311E+08;-9.529679827156298E-01;-8.133489540649860E-02;
9.975487743871936E+08;-9.549243333307333E-01;-7.406021163196708E-02;
9.980490245122561E+08;-9.568583952937555E-01;-6.646608258299536E-02;
9.985492746373186E+08;-9.588777903341099E-01;-5.896098552109202E-02;
9.990495247623812E+08;-9.607956590920602E-01;-5.141333585536904E-02;
9.995497748874438E+08;-9.626488478156087E-01;-4.376779754367470E-02;
1.000050025012506E+09;-9.648287890363646E-01;-3.619744500283996E-02;
1.000550275137569E+09;-9.665737686047573E-01;-2.845191992292796E-02;
1.001050525262631E+09;-9.683989430791524E-01;-2.079729308527908E-02;
1.001550775387694E+09;-9.702949453903165E-01;-1.283561880830786E-02;
1.002051025512756E+09;-9.720458263312955E-01;-5.053839765802842E-03;
1.002551275637819E+09;-9.738480997421464E-01;2.815252105355485E-03;
1.003051525762881E+09;-9.756902747009558E-01;1.095432791652437E-02;
1.003551775887944E+09;-9.771674950577747E-01;1.907727290905624E-02;
1.004052026013006E+09;-9.789399907786390E-01;2.693231916446517E-02;
1.004552276138069E+09;-9.803976636990981E-01;3.523274235606295E-02;
1.005052526263132E+09;-9.818861032003584E-01;4.334283490247499E-02;
1.005552776388194E+09;-9.834314387102835E-01;5.162768038175503E-02;
1.006053026513257E+09;-9.849112810634294E-01;6.007251803698625E-02;
1.006553276638319E+09;-9.864999417393738E-01;6.833894234279200E-02;
1.007053526763382E+09;-9.878416442057089E-01;7.678031367818314E-02;
1.007553776888444E+09;-9.890354571684743E-01;8.552972670458908E-02;
1.008054027013507E+09;-9.903645144117795E-01;9.411717325122458E-02;
1.008554277138569E+09;-9.915351576987192E-01;1.026900376435186E-01;
1.009054527263632E+09;-9.925097655760319E-01;1.114961092861869E-01;
1.009554777388694E+09;-9.936293403965468E-01;1.200435065392848E-01;
1.010055027513757E+09;-9.945792627038716E-01;1.292344100735357E-01;
1.010555277638819E+09;-9.955193079522724E-01;1.381182354065037E-01;
1.011055527763882E+09;-9.962388265835161E-01;1.470438961678856E-01;
1.011555777888945E+09;-9.970026610524645E-01;1.563072760508309E-01;
1.012056028014007E+09;-9.975963418284629E-01;1.654377142871407E-01;
1.012556278139070E+09;-9.983155900961034E-01;1.745329876084937E-01;
1.013056528264132E+09;-9.986595120094000E-01;1.837936838928109E-01;
1.013556778389195E+09;-9.990616247039115E-01;1.933026250719047E-01;
1.014057028514257E+09;-9.995235557561670E-01;2.025397761142335E-01;
1.014557278639320E+09;-9.997240513113836E-01;2.121750389330009E-01;
1.015057528764382E+09;-9.997799836412061E-01;2.216918323836420E-01;
1.015557778889445E+09;-9.996258147419368E-01;2.313610725577201E-01;
1.016058029014507E+09;-9.995547108326720E-01;2.410884503971713E-01;
1.016558279139570E+09;-9.992757472436543E-01;2.506280632236983E-01;
1.017058529264632E+09;-9.990258087739090E-01;2.606453118584049E-01;
1.017558779389695E+09;-9.983737367608948E-01;2.703842315444283E-01;
1.018059029514757E+09;-9.977565666606705E-01;2.802771602131544E-01;
1.018559279639820E+09;-9.970965242706148E-01;2.902508049946858E-01;
1.019059529764882E+09;-9.962303932966866E-01;3.001995064498125E-01;
1.019559779889945E+09;-9.952563988644552E-01;3.101668140022322E-01;
1.020060030015007E+09;-9.940411758711796E-01;3.203826856870531E-01;
1.020560280140070E+09;-9.927120228290068E-01;3.305010839325177E-01;
1.021060530265133E+09;-9.911473694141666E-01;3.405748783013862E-01;
1.021560780390195E+09;-9.896420565097059E-01;3.506419029122823E-01;
1.022061030515258E+09;-9.880268174204394E-01;3.609008442921054E-01;
1.022561280640320E+09;-9.861909826434031E-01;3.711690531689454E-01;
1.023061530765383E+09;-9.840059778764177E-01;3.816261147632625E-01;
1.023561780890445E+09;-9.819532427125209E-01;3.917052406830762E-01;
1.024062031015508E+09;-9.797237620770332E-01;4.020203557227573E-01;
1.024562281140570E+09;-9.770555484716861E-01;4.123496223191416E-01;
1.025062531265633E+09;-9.744448362757440E-01;4.227116070744354E-01;
1.025562781390695E+09;-9.717256963530468E-01;4.330085917781754E-01;
1.026063031515758E+09;-9.687900156541178E-01;4.433026157023108E-01;
1.026563281640820E+09;-9.655381128896577E-01;4.535076034595407E-01;
1.027063531765883E+09;-9.622679603204970E-01;4.637469831544301E-01;
1.027563781890945E+09;-9.587920278928221E-01;4.739023906427954E-01;
1.028064032016008E+09;-9.551538567695930E-01;4.841043974253624E-01;
1.028564282141070E+09;-9.512779112215570E-01;4.943857577599455E-01;
1.029064532266133E+09;-9.475138892666549E-01;5.043464101477827E-01;
1.029564782391196E+09;-9.432487465650351E-01;5.145121708944126E-01;
1.030065032516258E+09;-9.389536723828481E-01;5.246180876559299E-01;
1.030565282641321E+09;-9.344961534070989E-01;5.345732606756795E-01;
1.031065532766383E+09;-9.298689055520014E-01;5.445429675853595E-01;
1.031565782891446E+09;-9.251930883578097E-01;5.544115923040185E-01;
1.032066033016508E+09;-9.201208478680721E-01;5.641766531578775E-01;
1.032566283141571E+09;-9.151534648127442E-01;5.739567430626005E-01;
1.033066533266633E+09;-9.098225770151825E-01;5.836369029441922E-01;
1.033566783391696E+09;-9.043164686006846E-01;5.930626308004159E-01;
1.034067033516758E+09;-8.987745857669424E-01;6.025468171808276E-01;
1.034567283641821E+09;-8.930166107486197E-01;6.118417197863868E-01;
1.035067533766883E+09;-8.870972345548856E-01;6.212784775780776E-01;
1.035567783891946E+09;-8.811732661100036E-01;6.303714837046808E-01;
1.036068034017009E+09;-8.750672573516940E-01;6.395439386909644E-01;
1.036568284142071E+09;-8.687728788494822E-01;6.484975934460058E-01;
1.037068534267134E+09;-8.624768658176472E-01;6.572729243603443E-01;
1.037568784392196E+09;-8.558222480442893E-01;6.662379942940103E-01;
1.038069034517259E+09;-8.491726466745767E-01;6.746916843774409E-01;
1.038569284642321E+09;-8.425336001427719E-01;6.832591144586979E-01;
1.039069534767384E+09;-8.355864626789944E-01;6.916621808454253E-01;
1.039569784892446E+09;-8.285882102205203E-01;6.999317854806267E-01;
1.040070035017509E+09;-8.214726719131890E-01;7.081100919150471E-01;
1.040570285142571E+09;-8.142581489000132E-01;7.159177098991093E-01;
1.041070535267634E+09;-8.068335634230368E-01;7.237152524568115E-01;
1.041570785392696E+09;-7.994508473332776E-01;7.313960923494286E-01;
1.042071035517759E+09;-7.920715051448837E-01;7.388765187774713E-01;
1.042571285642821E+09;-7.844472975878035E-01;7.463205293565034E-01;
