# Version 1.00
#
freq[Hz];re:Trc1_S21;im:Trc1_S21;
1.350000000000000E+09;-9.869534022037352E-01;-9.577623598825878E-01;
1.350050025012506E+09;-9.877747547248954E-01;-9.567249770769274E-01;
1.350100050025012E+09;-9.884551403306158E-01;-9.559933862309967E-01;
1.350150075037519E+09;-9.891205254596518E-01;-9.550903784651875E-01;
1.350200100050025E+09;-9.898696116595127E-01;-9.544808731937324E-01;
1.350250125062531E+09;-9.907534622137750E-01;-9.534863569203450E-01;
1.350300150075037E+09;-9.915591241634999E-01;-9.527937867899293E-01;
1.350350175087544E+09;-9.922230300720616E-01;-9.518793003682209E-01;
1.350400200100050E+09;-9.931655182066723E-01;-9.509913187982000E-01;
1.350450225112556E+09;-9.938144494225143E-01;-9.503228718520367E-01;
1.350500250125062E+09;-9.946149542598677E-01;-9.495695835662691E-01;
1.350550275137569E+09;-9.956090780440788E-01;-9.486514051653208E-01;
1.350600300150075E+09;-9.963561801460724E-01;-9.476966542899036E-01;
1.350650325162581E+09;-9.969909911453515E-01;-9.469790889340709E-01;
1.350700350175087E+09;-9.977566205409450E-01;-9.461215527490160E-01;
1.350750375187594E+09;-9.985065757585027E-01;-9.451498763816687E-01;
1.350800400200100E+09;-9.991842611965296E-01;-9.446041244219798E-01;
1.350850425212606E+09;-1.000069800700263E+00;-9.438471800825469E-01;
1.350900450225112E+09;-1.000839057464513E+00;-9.426481133071062E-01;
1.350950475237619E+09;-1.001674397734827E+00;-9.417404252052712E-01;
1.351000500250125E+09;-1.002428178376522E+00;-9.413235975814723E-01;
1.351050525262631E+09;-1.003175962222544E+00;-9.403599561707802E-01;
1.351100550275138E+09;-1.003835753993536E+00;-9.395866557859925E-01;
1.351150575287644E+09;-1.004859511367727E+00;-9.388220919649235E-01;
1.351200600300150E+09;-1.005361688394735E+00;-9.379049143057769E-01;
1.351250625312656E+09;-1.006232924052557E+00;-9.372582962396174E-01;
1.351300650325163E+09;-1.007146638824143E+00;-9.361854449561592E-01;
1.351350675337669E+09;-1.007789213064296E+00;-9.354120995868225E-01;
1.351400700350175E+09;-1.008632448478192E+00;-9.344816245418405E-01;
1.351450725362681E+09;-1.009222691351843E+00;-9.336416729940522E-01;
1.351500750375188E+09;-1.009926701054851E+00;-9.327479165723468E-01;
1.351550775387694E+09;-1.010670002302855E+00;-9.321199165401699E-01;
1.351600800400200E+09;-1.011405249714486E+00;-9.312708000623933E-01;
1.351650825412706E+09;-1.012168987874040E+00;-9.304949087727367E-01;
1.351700850425213E+09;-1.012929295973729E+00;-9.295326565762390E-01;
1.351750875437719E+09;-1.013883755092959E+00;-9.288526452194013E-01;
1.351800900450225E+09;-1.014490449119900E+00;-9.280063043645042E-01;
1.351850925462731E+09;-1.015475231100845E+00;-9.271360880772284E-01;
1.351900950475238E+09;-1.016199319836361E+00;-9.260972424605659E-01;
1.351950975487744E+09;-1.016851747233099E+00;-9.254193884428918E-01;
1.352001000500250E+09;-1.017576894575180E+00;-9.245624917107533E-01;
1.352051025512756E+09;-1.018355811831099E+00;-9.237185568423311E-01;
1.352101050525263E+09;-1.019152831118968E+00;-9.228999908125697E-01;
1.352151075537769E+09;-1.019782322024808E+00;-9.221595577156640E-01;
1.352201100550275E+09;-1.020682178636581E+00;-9.210705254335615E-01;
1.352251125562781E+09;-1.021323968183402E+00;-9.203252170198907E-01;
1.352301150575288E+09;-1.022050910591469E+00;-9.195327298223539E-01;
1.352351175587794E+09;-1.022755428456182E+00;-9.184708385669554E-01;
1.352401200600300E+09;-1.023735668517196E+00;-9.177151960873523E-01;
1.352451225612806E+09;-1.024448907016935E+00;-9.169224268640467E-01;
1.352501250625313E+09;-1.025108922703841E+00;-9.160829681183507E-01;
1.352551275637819E+09;-1.026029900599821E+00;-9.151558006378453E-01;
1.352601300650325E+09;-1.026438666642811E+00;-9.143807768512306E-01;
1.352651325662831E+09;-1.027145893608490E+00;-9.137983634999768E-01;
1.352701350675338E+09;-1.028197946381334E+00;-9.125906164732973E-01;
1.352751375687844E+09;-1.028897321111794E+00;-9.118730394358477E-01;
1.352801400700350E+09;-1.029677756747574E+00;-9.111110261045815E-01;
1.352851425712857E+09;-1.030198379153862E+00;-9.100909473848385E-01;
1.352901450725363E+09;-1.031149505826234E+00;-9.093651906663484E-01;
1.352951475737869E+09;-1.031675584179896E+00;-9.085314467804924E-01;
1.353001500750375E+09;-1.032572515917532E+00;-9.074849776751494E-01;
1.353051525762882E+09;-1.033210873001869E+00;-9.067737716391968E-01;
1.353101550775388E+09;-1.033949493551794E+00;-9.057243399867226E-01;
1.353151575787894E+09;-1.034748881937091E+00;-9.049755507284017E-01;
1.353201600800400E+09;-1.035285698333458E+00;-9.039643403732118E-01;
1.353251625812907E+09;-1.036178540619514E+00;-9.031440355888717E-01;
1.353301650825413E+09;-1.036816436168835E+00;-9.022451420624097E-01;
1.353351675837919E+09;-1.037593264909971E+00;-9.014972335284852E-01;
1.353401700850425E+09;-1.038203943273125E+00;-9.005959093845546E-01;
1.353451725862931E+09;-1.038905413992214E+00;-8.999280889887099E-01;
1.353501750875438E+09;-1.039821450647750E+00;-8.988577725482755E-01;
1.353551775887944E+09;-1.040312734755766E+00;-8.979355764281460E-01;
1.353601800900450E+09;-1.041175267636630E+00;-8.970852971612818E-01;
1.353651825912956E+09;-1.041861058285692E+00;-8.963485640135345E-01;
1.353701850925463E+09;-1.042596894448292E+00;-8.954094375892302E-01;
1.353751875937969E+09;-1.043229666589373E+00;-8.944481251734918E-01;
1.353801900950475E+09;-1.044066371537869E+00;-8.937373851903394E-01;
1.353851925962981E+09;-1.045108309340376E+00;-8.927166043946323E-01;
1.353901950975488E+09;-1.045482190336722E+00;-8.920740016000440E-01;
1.353951975987994E+09;-1.046230634198884E+00;-8.908112147821274E-01;
1.354002001000500E+09;-1.047037978152155E+00;-8.902770518406502E-01;
1.354052026013006E+09;-1.047665727322867E+00;-8.893620815138965E-01;
1.354102051025513E+09;-1.048289420542584E+00;-8.883981079210874E-01;
1.354152076038019E+09;-1.049061484573875E+00;-8.874274161540023E-01;
1.354202101050525E+09;-1.050002875766281E+00;-8.864575865895448E-01;
1.354252126063031E+09;-1.050521159626923E+00;-8.856944579333187E-01;
1.354302151075538E+09;-1.051274361211207E+00;-8.849749974557951E-01;
1.354352176088044E+09;-1.051971417186594E+00;-8.839992685101290E-01;
1.354402201100550E+09;-1.052591345481752E+00;-8.830800145110532E-01;
1.354452226113056E+09;-1.053389556716792E+00;-8.823128429319022E-01;
1.354502251125563E+09;-1.054023266148354E+00;-8.814196400341771E-01;
1.354552276138069E+09;-1.054914992581818E+00;-8.805212413618363E-01;
1.354602301150575E+09;-1.055440253121363E+00;-8.797445286090446E-01;
1.354652326163082E+09;-1.056322437970094E+00;-8.788372255053456E-01;
1.354702351175588E+09;-1.057049598002132E+00;-8.777420622589268E-01;
1.354752376188094E+09;-1.057647717596547E+00;-8.769627773643166E-01;
1.354802401200600E+09;-1.058220277371382E+00;-8.764151416156383E-01;
1.354852426213107E+09;-1.059074872405377E+00;-8.752933712926485E-01;
1.354902451225613E+09;-1.059883110224257E+00;-8.743924449972993E-01;
1.354952476238119E+09;-1.060499216399939E+00;-8.735274044461973E-01;
1.355002501250625E+09;-1.061171962161769E+00;-8.725016429317157E-01;
1.355052526263132E+09;-1.061902208665845E+00;-8.716242409699875E-01;
1.355102551275638E+09;-1.062592205281794E+00;-8.705888008251774E-01;
1.355152576288144E+09;-1.063388086510441E+00;-8.698931234064932E-01;
1.355202601300650E+09;-1.063893326595820E+00;-8.691333371740115E-01;
1.355252626313157E+09;-1.064748781698763E+00;-8.683191624766786E-01;
1.355302651325663E+09;-1.065360930218716E+00;-8.674012065453370E-01;
1.355352676338169E+09;-1.065996864894863E+00;-8.663447564879330E-01;
1.355402701350675E+09;-1.066765678076369E+00;-8.655007812117498E-01;
1.355452726363182E+09;-1.067395199056561E+00;-8.645730856059168E-01;
1.355502751375688E+09;-1.068183583642560E+00;-8.637407615665185E-01;
1.355552776388194E+09;-1.069022985307150E+00;-8.629192825925299E-01;
1.355602801400700E+09;-1.069645339508773E+00;-8.620635324495564E-01;
1.355652826413207E+09;-1.070364177559032E+00;-8.610438198981046E-01;
1.355702851425713E+09;-1.070908161036564E+00;-8.601725457400894E-01;
1.355752876438219E+09;-1.071698559569376E+00;-8.591878147468235E-01;
1.355802901450725E+09;-1.072604606192107E+00;-8.585028917463665E-01;
1.355852926463232E+09;-1.073264414998303E+00;-8.573843909997405E-01;
1.355902951475738E+09;-1.073952815853929E+00;-8.566143089279215E-01;
1.355952976488244E+09;-1.074362283395003E+00;-8.556440942788754E-01;
1.356003001500750E+09;-1.075079100394276E+00;-8.550354403098454E-01;
1.356053026513257E+09;-1.075834200313583E+00;-8.539395322391614E-01;
1.356103051525763E+09;-1.076615202230572E+00;-8.531849330430886E-01;
1.356153076538269E+09;-1.077306369275512E+00;-8.520415080489921E-01;
1.356203101550775E+09;-1.077934554126682E+00;-8.512396155582269E-01;
1.356253126563282E+09;-1.078676306799694E+00;-8.503934518775064E-01;
1.356303151575788E+09;-1.079284807620785E+00;-8.493736547788432E-01;
1.356353176588294E+09;-1.079921572448736E+00;-8.484011036140495E-01;
1.356403201600801E+09;-1.080682862503105E+00;-8.474373958672465E-01;
1.356453226613307E+09;-1.081372694494540E+00;-8.468746947912542E-01;
1.356503251625813E+09;-1.082175721941052E+00;-8.460040497154038E-01;
1.356553276638319E+09;-1.082702780223352E+00;-8.450356929968255E-01;
1.356603301650826E+09;-1.083574112224893E+00;-8.441838366314709E-01;
1.356653326663332E+09;-1.084064707746705E+00;-8.430307823425346E-01;
1.356703351675838E+09;-1.084785397240953E+00;-8.419872060189235E-01;
1.356753376688344E+09;-1.085299078399296E+00;-8.414407341866049E-01;
1.356803401700850E+09;-1.086092632887544E+00;-8.404151268862723E-01;
1.356853426713357E+09;-1.086708146201216E+00;-8.395108585864542E-01;
1.356903451725863E+09;-1.087456719450967E+00;-8.385875717888417E-01;
1.356953476738369E+09;-1.087932279965696E+00;-8.376427064293408E-01;
1.357003501750875E+09;-1.088751747825377E+00;-8.367639846089781E-01;
1.357053526763382E+09;-1.089578502588782E+00;-8.357961173862017E-01;
1.357103551775888E+09;-1.090180618838389E+00;-8.349487876608208E-01;
1.357153576788394E+09;-1.090976498792819E+00;-8.340406176273772E-01;
1.357203601800900E+09;-1.091468524714794E+00;-8.333580500873957E-01;
1.357253626813407E+09;-1.091996407281636E+00;-8.323263916800462E-01;
1.357303651825913E+09;-1.092796377742239E+00;-8.314455825172814E-01;
1.357353676838419E+09;-1.093617671760932E+00;-8.303785215423528E-01;
1.357403701850925E+09;-1.094142602305266E+00;-8.294412122394893E-01;
1.357453726863432E+09;-1.094836809169381E+00;-8.285606763814546E-01;
1.357503751875938E+09;-1.095136552882490E+00;-8.275931644251482E-01;
1.357553776888444E+09;-1.096342761143026E+00;-8.266524938588702E-01;
1.357603801900950E+09;-1.096749822543029E+00;-8.256109455075439E-01;
1.357653826913457E+09;-1.097467550289175E+00;-8.247877772910264E-01;
1.357703851925963E+09;-1.098020152100210E+00;-8.237885106631837E-01;
1.357753876938469E+09;-1.098565504435762E+00;-8.230162624638674E-01;
1.357803901950975E+09;-1.099256376741260E+00;-8.221440729603720E-01;
1.357853926963482E+09;-1.100114603618727E+00;-8.211027768764886E-01;
1.357903951975988E+09;-1.100597706091051E+00;-8.201389705470054E-01;
1.357953976988494E+09;-1.101592615744024E+00;-8.194211501382940E-01;
1.358004002001000E+09;-1.102065286932623E+00;-8.186498367445645E-01;
1.358054027013507E+09;-1.102511441223616E+00;-8.174784208760244E-01;
1.358104052026013E+09;-1.103205072498659E+00;-8.166624197094675E-01;
1.358154077038519E+09;-1.104012325125002E+00;-8.154970734141382E-01;
1.358204102051026E+09;-1.104618740344123E+00;-8.148151084684381E-01;
1.358254127063532E+09;-1.105309252491139E+00;-8.136781408258594E-01;
1.358304152076038E+09;-1.106044102131593E+00;-8.128565380538775E-01;
1.358354177088544E+09;-1.106529702219855E+00;-8.119137069580303E-01;
1.358404202101051E+09;-1.107100759787706E+00;-8.110376919530428E-01;
1.358454227113557E+09;-1.107940328024423E+00;-8.102106724577302E-01;
1.358504252126063E+09;-1.108461123427646E+00;-8.091312350732547E-01;
1.358554277138569E+09;-1.109219381470007E+00;-8.083952482206088E-01;
1.358604302151076E+09;-1.109799536917111E+00;-8.072618442958235E-01;
1.358654327163582E+09;-1.110337564970622E+00;-8.063979961383618E-01;
1.358704352176088E+09;-1.111219796809565E+00;-8.053968326687496E-01;
1.358754377188594E+09;-1.111753564979006E+00;-8.044645254911915E-01;
1.358804402201101E+09;-1.112500804698505E+00;-8.035478255312386E-01;
1.358854427213607E+09;-1.113105999908047E+00;-8.024699670507741E-01;
1.358904452226113E+09;-1.113716940579702E+00;-8.018029544921350E-01;
1.358954477238619E+09;-1.114346699464446E+00;-8.007931360148000E-01;
1.359004502251126E+09;-1.114920600274996E+00;-7.998671906864291E-01;
1.359054527263632E+09;-1.115577986880526E+00;-7.988145194045185E-01;
1.359104552276138E+09;-1.116246799482571E+00;-7.980358077000462E-01;
1.359154577288644E+09;-1.116756714293508E+00;-7.970256191521301E-01;
1.359204602301151E+09;-1.117529054971439E+00;-7.960184945090756E-01;
1.359254627313657E+09;-1.118138812276958E+00;-7.951746056104968E-01;
1.359304652326163E+09;-1.118773307956945E+00;-7.942270611712864E-01;
1.359354677338669E+09;-1.119162066184813E+00;-7.933198478549326E-01;
1.359404702351176E+09;-1.119847890299220E+00;-7.922171661426746E-01;
1.359454727363682E+09;-1.120618884178426E+00;-7.915104589616735E-01;
1.359504752376188E+09;-1.121220300113180E+00;-7.905146112928367E-01;
1.359554777388694E+09;-1.121886734994479E+00;-7.895715526301813E-01;
1.359604802401201E+09;-1.122565083717767E+00;-7.886974884623521E-01;
1.359654827413707E+09;-1.122980367640535E+00;-7.877420251947765E-01;
1.359704852426213E+09;-1.123852653807343E+00;-7.867488408857927E-01;
1.359754877438719E+09;-1.124285595183595E+00;-7.857694432129220E-01;
1.359804902451226E+09;-1.124798235511817E+00;-7.850210690682610E-01;
1.359854927463732E+09;-1.125468636794829E+00;-7.839404418908057E-01;
1.359904952476238E+09;-1.126054601054993E+00;-7.829312187339127E-01;
1.359954977488744E+09;-1.126695313569950E+00;-7.820340803420350E-01;
1.360005002501251E+09;-1.127343971571391E+00;-7.810377953278504E-01;
1.360055027513757E+09;-1.128016365178079E+00;-7.801388379329095E-01;
1.360105052526263E+09;-1.128645214297222E+00;-7.790954799076965E-01;
1.360155077538769E+09;-1.129245285162444E+00;-7.781255973782198E-01;
1.360205102551276E+09;-1.129857301483843E+00;-7.772586966284860E-01;
1.360255127563782E+09;-1.130553471623345E+00;-7.762513537382983E-01;
1.360305152576288E+09;-1.130962024197215E+00;-7.754527476155595E-01;
1.360355177588794E+09;-1.131627045679031E+00;-7.743665164421829E-01;
1.360405202601301E+09;-1.132140561275496E+00;-7.735131920313507E-01;
1.360455227613807E+09;-1.132628110588748E+00;-7.726289269642149E-01;
1.360505252626313E+09;-1.133418190599637E+00;-7.715829486274883E-01;
1.360555277638819E+09;-1.134065043878270E+00;-7.706576018258434E-01;
1.360605302651326E+09;-1.134431362892135E+00;-7.698386863402846E-01;
1.360655327663832E+09;-1.135434720975824E+00;-7.688039934557420E-01;
1.360705352676338E+09;-1.135781670554083E+00;-7.679476368585318E-01;
1.360755377688844E+09;-1.136395358705744E+00;-7.669986831102112E-01;
1.360805402701351E+09;-1.137117436528006E+00;-7.659832881887505E-01;
1.360855427713857E+09;-1.137565255524000E+00;-7.648715494050795E-01;
1.360905452726363E+09;-1.138194851483333E+00;-7.641307589031583E-01;
1.360955477738869E+09;-1.138864026471195E+00;-7.631593060203000E-01;
1.361005502751376E+09;-1.139458255020692E+00;-7.620631192509035E-01;
1.361055527763882E+09;-1.139966140363870E+00;-7.609582174127324E-01;
1.361105552776388E+09;-1.140603654763154E+00;-7.602652359992199E-01;
1.361155577788894E+09;-1.141309906961999E+00;-7.593544389476051E-01;
1.361205602801401E+09;-1.141794985119548E+00;-7.583761308663481E-01;
1.361255627813907E+09;-1.142367802013159E+00;-7.572698851304616E-01;
1.361305652826413E+09;-1.143145004143347E+00;-7.564984515033343E-01;
1.361355677838919E+09;-1.143589856832494E+00;-7.552785753510829E-01;
1.361405702851426E+09;-1.144353098793927E+00;-7.544694472609607E-01;
1.361455727863932E+09;-1.144809259181692E+00;-7.534846406562610E-01;
1.361505752876438E+09;-1.145253273480157E+00;-7.523278965939673E-01;
1.361555777888944E+09;-1.145887867488490E+00;-7.516552852599077E-01;
1.361605802901451E+09;-1.146607044813150E+00;-7.505262213425954E-01;
1.361655827913957E+09;-1.147240033114210E+00;-7.497016285099851E-01;
1.361705852926463E+09;-1.147829308008909E+00;-7.486049634555197E-01;
1.361755877938969E+09;-1.148468146398599E+00;-7.475656783206880E-01;
1.361805902951476E+09;-1.148864900152296E+00;-7.468527354213572E-01;
1.361855927963982E+09;-1.149485427464838E+00;-7.457826154525545E-01;
1.361905952976488E+09;-1.150019567418580E+00;-7.448199087690792E-01;
1.361955977988995E+09;-1.150545678686242E+00;-7.435947123255507E-01;
1.362006003001501E+09;-1.151346028745012E+00;-7.428064329899953E-01;
1.362056028014007E+09;-1.151569129587086E+00;-7.418396226189421E-01;
1.362106053026513E+09;-1.152327023361715E+00;-7.410508956416164E-01;
1.362156078039020E+09;-1.152794401494210E+00;-7.399833193894967E-01;
1.362206103051526E+09;-1.153456676466195E+00;-7.389772155257015E-01;
1.362256128064032E+09;-1.154025137878867E+00;-7.379831125777930E-01;
1.362306153076538E+09;-1.154541772825634E+00;-7.370102815442129E-01;
1.362356178089045E+09;-1.155040122052546E+00;-7.359166032391241E-01;
1.362406203101551E+09;-1.155690589562806E+00;-7.350430919185068E-01;
1.362456228114057E+09;-1.156350803208003E+00;-7.341912056013229E-01;
1.362506253126563E+09;-1.156861796732412E+00;-7.332225436042205E-01;
1.362556278139070E+09;-1.157514135306848E+00;-7.321713613983117E-01;
1.362606303151576E+09;-1.157928986831348E+00;-7.310898595390889E-01;
1.362656328164082E+09;-1.158611849107604E+00;-7.301895988575793E-01;
1.362706353176588E+09;-1.159124624823077E+00;-7.292801028825442E-01;
1.362756378189095E+09;-1.159707851820865E+00;-7.282225872850224E-01;
1.362806403201601E+09;-1.160344177907497E+00;-7.272938873967695E-01;
1.362856428214107E+09;-1.160762468298480E+00;-7.265211549085125E-01;
1.362906453226613E+09;-1.161201206569491E+00;-7.253757542434259E-01;
1.362956478239120E+09;-1.161916670330597E+00;-7.244041268816671E-01;
1.363006503251626E+09;-1.162517302030944E+00;-7.233513199341679E-01;
1.363056528264132E+09;-1.163120254174928E+00;-7.225817845529401E-01;
1.363106553276638E+09;-1.163588031289056E+00;-7.214650450812858E-01;
1.363156578289145E+09;-1.164174866574867E+00;-7.206281717111989E-01;
1.363206603301651E+09;-1.164739760120199E+00;-7.196512602381961E-01;
1.363256628314157E+09;-1.165429896417416E+00;-7.184995463114594E-01;
1.363306653326663E+09;-1.166139934433186E+00;-7.175537471265058E-01;
1.363356678339170E+09;-1.166409728157203E+00;-7.166753152598577E-01;
1.363406703351676E+09;-1.166854006137598E+00;-7.157074115132798E-01;
1.363456728364182E+09;-1.167441154882490E+00;-7.146285994943754E-01;
1.363506753376688E+09;-1.167929112295931E+00;-7.137049146571727E-01;
1.363556778389194E+09;-1.168471209822940E+00;-7.127191925572093E-01;
1.363606803401701E+09;-1.168974458718796E+00;-7.116197428188989E-01;
1.363656828414207E+09;-1.169503027755301E+00;-7.107906011541986E-01;
1.363706853426713E+09;-1.170131437280073E+00;-7.099146773383466E-01;
1.363756878439220E+09;-1.170771021602398E+00;-7.090047859935267E-01;
1.363806903451726E+09;-1.171567137580513E+00;-7.076965896260157E-01;
1.363856928464232E+09;-1.171994307478790E+00;-7.067794419588387E-01;
1.363906953476738E+09;-1.172436563649089E+00;-7.055980068587241E-01;
1.363956978489245E+09;-1.172881362817950E+00;-7.046787642175117E-01;
1.364007003501751E+09;-1.173564736894042E+00;-7.037641804792850E-01;
1.364057028514257E+09;-1.173929438260248E+00;-7.030326810818361E-01;
1.364107053526763E+09;-1.174801145597740E+00;-7.018539517515646E-01;
1.364157078539270E+09;-1.175137756002442E+00;-7.010412181315496E-01;
